!Generated from: D:\Work\SiP Sigfox\Hardware\Work\designFlow_RFmodeling\V1I1\Simulation\fixture01_worst_case_higher.spd
! Port1::OUT
! Port2::OUT
!
!PowerSI Version: 16.0.0.02091.0   000
!Computer Host Name: DESKTOP-JQNU4CJ
!
!TouchstoneFormatFlag = 1
! GNDNET GND
! NETSLIST 
!ENCODED_BEGIN
!0889B71221DAF54192BECE6985861F1178E3CF1522971D6992DC39A223786694703D55A53EC5558E184E2ACE
!ENCODED_END
!
#	Hz	S	MA	R	50
100000000	0.00929250433738078	-93.2212974340434	0.998444851345805	-10.7927849055313	0.998444851345805	-10.7927849055313	0.00929262114207334	-93.2164993628207
102000000	0.00948696627645779	-93.5282051475443	0.998426515700292	-11.0078406168391	0.998426515700292	-11.0078406168391	0.00948708604478117	-93.5233164974258
104000000	0.00968137725760361	-93.8322516442646	0.998408276606253	-11.2228877916168	0.998408276606253	-11.2228877916168	0.00968150011115118	-93.8272724806618
106000000	0.00987572930949306	-94.1335712023278	0.998390129814813	-11.4379266454695	0.998390129814813	-11.4379266454695	0.00987585535057828	-94.1285015953805
108000000	0.0100700147351122	-94.4322901989418	0.998372071341438	-11.652957380007	0.998372071341438	-11.652957380007	0.0100701440494042	-94.4271302205053
110000000	0.0102642260830754	-94.7285276437073	0.998354097443466	-11.8679801842315	0.998354097443466	-11.8679801842315	0.0102643587419484	-94.7232773652065
112000000	0.0104583561227142	-95.0223956702154	0.998336204599715	-12.0829952357407	0.998336204599715	-12.0829952357407	0.0104584921853303	-95.0170551611617
114000000	0.0106523978224205	-95.3139999901754	0.998318389492023	-12.2980027017757	0.998318389492023	-12.2980027017757	0.0106525373375766	-95.308569317193
116000000	0.0108463443308156	-95.6034403136751	0.998300648988577	-12.5130027401345	0.998300648988577	-12.5130027401345	0.0108464873385668	-95.5979195399108
118000000	0.0110401889603487	-95.8908107386829	0.998282980128852	-12.7279954999713	0.998282980128852	-12.7279954999713	0.0110403354934371	-95.8851999235016
120000000	0.0112339251730038	-96.1762001125101	0.998265380110048	-12.9429811224996	0.998265380110048	-12.9429811224996	0.0112340752581056	-96.1704993114026
122000000	0.0114275465678177	-96.4596923676096	0.998247846274861	-13.1579597416104	0.998247846274861	-13.1579597416104	0.0114277002266326	-96.4539016322481
124000000	0.011621046869968	-96.7413668338218	0.998230376100476	-13.3729314844209	0.998230376100476	-13.3729314844209	0.0116212041201599	-96.7354862122177
126000000	0.011814419921208	-97.021298528941	0.998212967188649	-13.5878964717613	0.998212967188649	-13.5878964717613	0.0118145807772194	-97.0153280656722
128000000	0.0120076596714671	-97.2995584292864	0.998195617256781	-13.8028548186092	0.998195617256781	-13.8028548186092	0.0120078241452188	-97.2934981657639
130000000	0.0122007601714549	-97.5762137218009	0.99817832412986	-14.0178066344793	0.99817832412986	-14.0178066344793	0.0122009282729407	-97.570063696555
132000000	0.0123937155661286	-97.8513280390471	0.998161085733203	-14.2327520237738	0.998161085733203	-14.2327520237738	0.0123938873039211	-97.8450882880227
134000000	0.0125865200889043	-98.1249616783651	0.998143900085894	-14.4476910861002	0.998143900085894	-14.4476910861002	0.0125866954705816	-98.1186322352039
136000000	0.012779168056512	-98.3971718063236	0.998126765294854	-14.6626239165587	0.998126765294854	-14.6626239165587	0.0127793470890119	-98.3907527026399
138000000	0.012971653864403	-98.6680126495326	0.998109679549473	-14.8775506060053	0.998109679549473	-14.8775506060053	0.0129718365543168	-98.6615039151659
140000000	0.0131639719826331	-98.9375356727683	0.998092641116724	-15.0924712412922	0.998092641116724	-15.0924712412922	0.013164158336445	-98.9309373360172
142000000	0.0133561169521586	-99.2057897453118	0.998075648336743	-15.3073859054885	0.998075648336743	-15.3073859054885	0.0133563069764387	-99.199101833145
144000000	0.013548083381489	-99.4728212963198	0.998058699618785	-15.522294678085	0.998058699618785	-15.522294678085	0.0135482770830437	-99.466043834561
146000000	0.0137398659436433	-99.7386744599894	0.998041793437528	-15.7371976351822	0.998041793437528	-15.7371976351822	0.0137400633296349	-99.7318074734796
148000000	0.0139314593733781	-100.003391211222	0.998024928329707	-15.9520948496665	0.998024928329707	-15.9520948496665	0.0139316604514091	-99.9964347239621
150000000	0.0141228584646426	-100.267011492437	0.998008102891006	-16.1669863913726	0.998008102891006	-16.1669863913726	0.0141230632428176	-100.259965527707
152000000	0.0143140580682359	-100.529573332151	0.997991315773207	-16.3818723272368	0.997991315773207	-16.3818723272368	0.0143142665552018	-100.522437912607
154000000	0.0145050530896418	-100.791112955871	0.99797456568155	-16.5967527214391	0.99797456568155	-16.5967527214391	0.0145052652946074	-100.783888103629
156000000	0.0146958384870135	-101.051664889841	0.997957851372299	-16.8116276355374	0.997957851372299	-16.8116276355374	0.0146960544197564	-101.044350626545
158000000	0.0148864092692977	-101.311262058115	0.997941171650476	-17.0264971285931	0.997941171650476	-17.0264971285931	0.0148866289401571	-101.303858404984
160000000	0.0150767604944731	-101.56993587342	0.997924525367763	-17.2413612572898	0.997924525367763	-17.2413612572898	0.0150769839143329	-101.562442851288
162000000	0.015266887267898	-101.827716322222	0.997907911420523	-17.4562200760447	0.997907911420523	-17.4562200760447	0.0152671144481618	-101.820133951565
164000000	0.0154567847407507	-102.084632044392	0.997891328747972	-17.6710736371141	0.997891328747972	-17.6710736371141	0.01545701569331	-102.076960345347
166000000	0.0156464481085527	-102.340710407835	0.99787477633045	-17.8859219906927	0.99787477633045	-17.8859219906927	0.0156466828457511	-102.332949400206
168000000	0.0158358726097716	-102.595977578416	0.997858253187803	-18.1007651850082	0.997858253187803	-18.1007651850082	0.0158361111443638	-102.588127281681
170000000	0.0160250535244882	-102.850458585514	0.997841758377858	-18.3156032664103	0.997841758377858	-18.3156032664103	0.016025295869598	-102.842519018819
172000000	0.0162139861731295	-103.104177383475	0.997825290994973	-18.5304362794552	0.997825290994973	-18.5304362794552	0.0162142323422061	-103.096148565627
174000000	0.016402665915259	-103.357156909264	0.99780885016868	-18.7452642669862	0.99780885016868	-18.7452642669862	0.0164029159220313	-103.349038858721
176000000	0.0165910881484186	-103.60941913655	0.997792435062397	-18.9600872702091	0.997792435062397	-18.9600872702091	0.0165913420068518	-103.601211871404
178000000	0.0167792483070215	-103.860985126468	0.99777604487219	-19.1749053287647	0.99777604487219	-19.1749053287647	0.0167795060312725	-103.852688664432
180000000	0.0169671418612921	-104.111875075284	0.997759678825612	-19.3897184807978	0.997759678825612	-19.3897184807978	0.0169674034656653	-104.103489433674
182000000	0.0171547643162461	-104.362108359168	0.997743336180598	-19.6045267630219	0.997743336180598	-19.6045267630219	0.0171550298151539	-104.353633554884
184000000	0.0173421112107156	-104.611703576253	0.997727016224399	-19.8193302107811	0.997727016224399	-19.8193302107811	0.017342380618636	-104.60313962576
186000000	0.0175291781164106	-104.860678586179	0.997710718272568	-20.0341288581098	0.997710718272568	-20.0341288581098	0.0175294514478506	-104.852025505491
188000000	0.0177159606370179	-105.109050547272	0.997694441668011	-20.248922737788	0.997694441668011	-20.248922737788	0.0177162379064766	-105.100308351931
190000000	0.0179024544073358	-105.356835951523	0.997678185780047	-20.4637118813951	0.997678185780047	-20.4637118813951	0.0179027356292713	-105.348004656583
192000000	0.0180886550924431	-105.604050657503	0.99766195000354	-20.6784963193607	0.99766195000354	-20.6784963193607	0.0180889402812404	-105.595130277514
194000000	0.0182745583869006	-105.850709921355	0.997645733758038	-20.8932760810131	0.997645733758038	-20.8932760810131	0.0182748475568419	-105.841700470346
196000000	0.0184601600139823	-106.096828425984	0.997629536486973	-21.1080511946252	0.997629536486973	-21.1080511946252	0.0184604531792205	-106.087729917449
198000000	0.0186454557249392	-106.34242030856	0.997613357656883	-21.322821687459	0.997613357656883	-21.322821687459	0.018645752899474	-106.333232755446
200000000	0.018830441298292	-106.58749918645	0.997597196756666	-21.537587585807	0.997597196756666	-21.537587585807	0.0188307424959458	-106.578222601147
202000000	0.0190151125391499	-106.832078181674	0.997581053296863	-21.7523489150326	0.997581053296863	-21.7523489150326	0.0190154177735491	-106.822712575999
204000000	0.0191994652785597	-107.076169943976	0.99756492680897	-21.9671056996084	0.99756492680897	-21.9671056996084	0.0191997745631161	-107.066715329168
206000000	0.0193834953728796	-107.319786672606	0.997548816844784	-22.1818579631523	0.997548816844784	-22.1818579631523	0.0193838087207743	-107.310243059318
208000000	0.0195671987031787	-107.562940136891	0.997532722975768	-22.3966057284627	0.997532722975768	-22.3966057284627	0.0195675161273487	-107.553307535185
210000000	0.019750571174662	-107.805641695672	0.997516644792437	-22.6113490175516	0.997516644792437	-22.6113490175516	0.0197508926877877	-107.795920115008
212000000	0.0199336087161203	-108.047902315671	0.997500581903777	-22.8260878516767	0.997500581903777	-22.8260878516767	0.019933934330615	-108.038091764911
214000000	0.0201163072793994	-108.28973258887	0.997484533936684	-23.0408222513717	0.997484533936684	-23.0408222513717	0.0201166370074015	-108.279833076269
216000000	0.0202986628388976	-108.531142748948	0.997468500535423	-23.2555522364754	0.997468500535423	-23.2555522364754	0.0202989966922629	-108.521154282156
218000000	0.0204806713910806	-108.772142686844	0.997452481361099	-23.4702778261597	0.997452481361099	-23.4702778261597	0.0204810093813771	-108.762065272904
220000000	0.0206623289540196	-109.012741965492	0.997436476091172	-23.6849990389564	0.997436476091172	-23.6849990389564	0.0206626710925232	-109.00257561084
222000000	0.0208436315669485	-109.252949833786	0.997420484418957	-23.8997158927827	0.997420484418957	-23.8997158927827	0.0208439778646403	-109.242694544251
224000000	0.0210245752898422	-109.492775239816	0.99740450605318	-24.114428404966	0.99740450605318	-24.114428404966	0.0210249257574063	-109.482431020626
226000000	0.0212051562030127	-109.732226843426	0.997388540717513	-24.3291365922673	0.997388540717513	-24.3291365922673	0.0212055108508363	-109.721793699206
228000000	0.0213853704067242	-109.97131302812	0.997372588150161	-24.5438404709037	0.997372588150161	-24.5438404709037	0.0213857292448977	-109.960790962898
230000000	0.021565214020826	-110.210041912374	0.997356648103433	-24.7585400565705	0.997356648103433	-24.7585400565705	0.0215655770591439	-110.199430929584
232000000	0.0217446831844016	-110.448421360374	0.997340720343359	-24.9732353644621	0.997340720343359	-24.9732353644621	0.0217450504323648	-110.437721462861
234000000	0.0219237740554355	-110.686458992225	0.997324804649296	-25.1879264092915	0.997324804649296	-25.1879264092915	0.0219241455222541	-110.675670182248
236000000	0.0221024828104947	-110.924162193648	0.997308900813558	-25.4026132053103	0.997308900813558	-25.4026132053103	0.0221028585050917	-110.913284472885
238000000	0.0222808056444266	-111.161538125209	0.997293008641067	-25.617295766327	0.997293008641067	-25.617295766327	0.0222811855754406	-111.150571494766
240000000	0.0224587387700684	-111.3985937311	0.997277127949002	-25.8319741057251	0.997277127949002	-25.8319741057251	0.0224591229458601	-111.387538191513
242000000	0.0226362784179762	-111.635335747496	0.997261258566473	-26.0466482364799	0.997261258566473	-26.0466482364799	0.022636666846632	-111.624191298737
244000000	0.0228134208361621	-111.871770710518	0.997245400334196	-26.2613181711757	0.997245400334196	-26.2613181711757	0.0228138135254992	-111.860537352001
246000000	0.0229901622898471	-112.107904963815	0.997229553104193	-26.4759839220216	0.997229553104193	-26.4759839220216	0.0229905592474202	-112.096582694405
248000000	0.0231664990612254	-112.343744665799	0.997213716739485	-26.6906455008669	0.997213716739485	-26.6906455008669	0.0231669002943312	-112.332333483813
250000000	0.0233424274492416	-112.57929579654	0.997197891113811	-26.9053029192161	0.997197891113811	-26.9053029192161	0.0233428329649254	-112.567795699756
252000000	0.0235179437693769	-112.814564164344	0.997182076111347	-27.1199561882435	0.997182076111347	-27.1199561882435	0.0235183535744395	-112.802975150007
254000000	0.0236930443534499	-113.049555412039	0.997166271626444	-27.3346053188069	0.997166271626444	-27.3346053188069	0.0236934584544529	-113.037877476865
256000000	0.0238677255494245	-113.284275022969	0.99715047756336	-27.5492503214612	0.99715047756336	-27.5492503214612	0.0238681439526974	-113.272508163151
258000000	0.024041983721229	-113.518728326726	0.997134693836017	-27.7638912064715	0.997134693836017	-27.7638912064715	0.0240424064328748	-113.506872537942
260000000	0.0242158152485853	-113.752920504629	0.997118920367759	-27.9785279838257	0.997118920367759	-27.9785279838257	0.0242162422744879	-113.740975782044
262000000	0.0243892165268461	-113.986856594959	0.997103157091109	-28.1931606632465	0.997103157091109	-28.1931606632465	0.0243896478726761	-113.974822933233
264000000	0.0245621839668416	-114.22054149797	0.997087403947554	-28.4077892542034	0.997087403947554	-28.4077892542034	0.0245626196380626	-114.208418891262
266000000	0.0247347139947334	-114.453979980686	0.997071660887319	-28.6224137659243	0.997071660887319	-28.6224137659243	0.0247351539966094	-114.441768422656
268000000	0.0249068030518787	-114.687176681485	0.997055927869155	-28.8370342074064	0.997055927869155	-28.8370342074064	0.0249072473894781	-114.674876165303
270000000	0.0250784475946977	-114.920136114501	0.997040204860131	-29.0516505874267	0.997040204860131	-29.0516505874267	0.025078896272902	-114.907746632847
272000000	0.0252496440945538	-115.152862673831	0.997024491835442	-29.2662629145532	0.997024491835442	-29.2662629145532	0.0252500971180615	-115.140384218903
274000000	0.0254203890376353	-115.385360637575	0.997008788778206	-29.480871197154	0.997008788778206	-29.480871197154	0.0254208464109688	-115.372793201091
276000000	0.0255906789248474	-115.617634171706	0.996993095679284	-29.6954754434079	0.996993095679284	-29.6954754434079	0.025591140652358	-115.604977744905
278000000	0.0257605102717074	-115.849687333781	0.996977412537089	-29.9100756613136	0.996977412537089	-29.9100756613136	0.0257609763575813	-115.836941907431
280000000	0.025929879608249	-116.081524076507	0.996961739357419	-30.124671858699	0.996961739357419	-30.124671858699	0.0259303500565124	-116.068689640902
282000000	0.0260987834789295	-116.313148251155	0.996946076153277	-30.33926404323	0.996946076153277	-30.33926404323	0.0260992582934534	-116.300224796123
284000000	0.0262672184425434	-116.544563610849	0.996930422944703	-30.5538522224196	0.996930422944703	-30.5538522224196	0.0262676976270492	-116.53155112575
286000000	0.0264351810721413	-116.775773813714	0.996914779758622	-30.7684364036357	0.996914779758622	-30.7684364036357	0.0264356646302046	-116.762672287447
288000000	0.0266026679549525	-117.006782425915	0.99689914662867	-30.9830165941102	0.99689914662867	-30.9830165941102	0.0266031558900089	-116.993591846913
290000000	0.0267696756923141	-117.23759292456	0.996883523595058	-31.1975928009459	0.996883523595058	-31.1975928009459	0.0267701680076623	-117.224313280797
292000000	0.0269362008996025	-117.468208700506	0.996867910704401	-31.4121650311255	0.996867910704401	-31.4121650311255	0.0269366975984089	-117.454839979495
294000000	0.0271022402061699	-117.698633061052	0.996852308009592	-31.6267332915179	0.996852308009592	-31.6267332915179	0.0271027412914723	-117.685175249848
296000000	0.027267790255284	-117.928869232531	0.996836715569647	-31.8412975888864	0.996836715569647	-31.8412975888864	0.0272682957299962	-117.915322317729
298000000	0.0274328477040738	-118.158920362802	0.996821133449568	-32.0558579298953	0.996821133449568	-32.0558579298953	0.0274333575709875	-118.145284330539
300000000	0.0275974092234753	-118.388789523651	0.996805561720213	-32.2704143211174	0.996805561720213	-32.2704143211174	0.0275979234852648	-118.375064359608
302000000	0.0277614714981825	-118.618479713107	0.996790000458159	-32.4849667690399	0.996790000458159	-32.4849667690399	0.0277619901574074	-118.604665402504
304000000	0.0279250312266033	-118.847993857663	0.996774449745572	-32.6995152800718	0.996774449745572	-32.6995152800718	0.0279255542857111	-118.834090385262
306000000	0.0280880851208145	-119.077334814427	0.996758909670082	-32.9140598605495	0.996758909670082	-32.9140598605495	0.0280886125821433	-119.063342164531
308000000	0.0282506299065216	-119.306505373187	0.996743380324665	-33.1286005167436	0.996743380324665	-33.1286005167436	0.0282511617723038	-119.292423529636
310000000	0.0284126623230239	-119.535508258405	0.996727861807516	-33.3431372548646	0.996727861807516	-33.3431372548646	0.0284131985953871	-119.52133720458
312000000	0.0285741791231769	-119.76434613114	0.996712354221931	-33.5576700810686	0.996712354221931	-33.5576700810686	0.0285747198041466	-119.750085849957
314000000	0.0287351770733612	-119.993021590903	0.996696857676196	-33.7721990014634	0.996696857676196	-33.7721990014634	0.028735722164863	-119.978672064813
316000000	0.0288956529534524	-120.221537177443	0.996681372283474	-33.9867240221138	0.996681372283474	-33.9867240221138	0.028896202457314	-120.207098388431
318000000	0.0290556035567934	-120.449895372476	0.99666589816169	-34.2012451490471	0.99666589816169	-34.2012451490471	0.0290561574747457	-120.435367302059
320000000	0.0292150256901674	-120.678098601353	0.996650435433425	-34.4157623882581	0.996650435433425	-34.4157623882581	0.0292155840238473	-120.663481230573
322000000	0.029373916173776	-120.906149234661	0.996634984225817	-34.6302757457142	0.996634984225817	-34.6302757457142	0.0293744789247258	-120.891442544092
324000000	0.0295322718412162	-121.134049589786	0.996619544670442	-34.8447852273607	0.996619544670442	-34.8447852273607	0.0295328390108865	-121.119253559523
326000000	0.0296900895394594	-121.36180193241	0.996604116903229	-35.0592908391254	0.996604116903229	-35.0592908391254	0.0296906611292097	-121.346916542068
328000000	0.0298473661288346	-121.589408477957	0.996588701064348	-35.2737925869232	0.996588701064348	-35.2737925869232	0.0298479421399348	-121.57443370667
330000000	0.0300040984830109	-121.816871392999	0.996573297298116	-35.4882904766608	0.996573297298116	-35.4882904766608	0.0300046789166411	-121.801807219418
332000000	0.0301602834889817	-122.044192796611	0.996557905752904	-35.7027845142408	0.996557905752904	-35.7027845142408	0.0301608683462341	-122.029039198895
334000000	0.0303159180470513	-122.271374761674	0.996542526581036	-35.9172747055668	0.996542526581036	-35.9172747055668	0.0303165073289302	-122.256131717493
336000000	0.0304709990708225	-122.498419316147	0.996527159938703	-36.1317610565465	0.996527159938703	-36.1317610565465	0.0304715927782451	-122.483086802675
338000000	0.0306255234871852	-122.725328444288	0.996511805985869	-36.3462435730966	0.996511805985869	-36.3462435730966	0.0306261216209819	-122.709906438198
340000000	0.0307794882363059	-122.95210408784	0.996496464886182	-36.5607222611466	0.996496464886182	-36.5607222611466	0.0307800907972217	-122.936592565304
342000000	0.0309328902716208	-123.178748147174	0.99648113680688	-36.7751971266422	0.99648113680688	-36.7751971266422	0.0309334972603135	-123.163147083857
344000000	0.0310857265598258	-123.405262482403	0.996465821918718	-36.9896681755499	0.996465821918718	-36.9896681755499	0.0310863379768685	-123.389571853457
346000000	0.0312379940808716	-123.63164891445	0.99645052039587	-37.2041354138595	0.99645052039587	-37.2041354138595	0.0312386099267515	-123.615868694512
348000000	0.0313896898279579	-123.857909226088	0.996435232415853	-37.4185988475888	0.996435232415853	-37.4185988475888	0.0313903101030766	-123.842039389277
350000000	0.0315408108075285	-124.08404516295	0.996419958159441	-37.6330584827862	0.996419958159441	-37.6330584827862	0.0315414355122021	-124.068085682859
