!Generated from: D:\Work\cadence_lib\blocks_symbols\fixture01.spd
! Port1::OUT
! Port2::OUT
!
!PowerSI Version: 16.0.0.02091.0   000
!Computer Host Name: DESKTOP-JQNU4CJ
!
!TouchstoneFormatFlag = 1
! GNDNET GND
! NETSLIST 
!ENCODED_BEGIN
!0889B71221DAF54192BECE6985861F1178E3CF1522971D6992DC39A223786694703D55A53EC5558E184E2ACE
!ENCODED_END
!
#	Hz	S	MA	R	50
400000000	0.0424703917042331	43.8802864452675	0.99540105191377	-42.6947702244611	0.99540105191377	-42.6947702244611	0.0424702938116367	43.8834557256473
402000000	0.0426437178073078	43.6780427096487	0.995383717143495	-42.907551002192	0.995383717143495	-42.907551002192	0.0426436186321211	43.6812551215042
404000000	0.0428165930045579	43.4757366882202	0.995366395071024	-43.1203278455152	0.995366395071024	-43.1203278455152	0.0428164925224443	43.4789926718557
406000000	0.042989015681122	43.2733692302666	0.995349085802598	-43.3331007610001	0.995349085802598	-43.3331007610001	0.0429889138684272	43.2766692277286
408000000	0.0431609842261549	43.0709411691419	0.995331789447798	-43.5458697551202	0.995331789447798	-43.5458697551202	0.043160881059877	43.0742856242438
410000000	0.0433324970327928	42.8684533226572	0.995314506119486	-43.7586348342599	0.995314506119486	-43.7586348342599	0.0433323924905534	42.8718426810047
412000000	0.0435035524981222	42.6659064934533	0.995297235933737	-43.9713960047193	0.995297235933737	-43.9713960047193	0.0435034465581379	42.6693412024696
414000000	0.0436741490231484	42.4633014693673	0.99527997900976	-44.1841532727213	0.99527997900976	-44.1841532727213	0.0436740416642045	42.4667819783185
416000000	0.0438442850127717	42.2606390237866	0.995262735469832	-44.3969066444167	0.995262735469832	-44.3969066444167	0.0438441762141948	42.2641657838071
418000000	0.0440139588757593	42.057919915995	0.995245505439236	-44.6096561258892	0.995245505439236	-44.6096561258892	0.0440138486173925	42.061493380113
420000000	0.0441831690247243	41.8551448915094	0.995228289046177	-44.8224017231619	0.995228289046177	-44.8224017231619	0.0441830572869028	41.8587655146715
422000000	0.0443519138761038	41.6523146824069	0.995211086421735	-45.0351434422008	0.995211086421735	-45.0351434422008	0.044351800639631	41.6559829215042
424000000	0.0445201918501418	41.4494300076424	0.99519389769978	-45.2478812889214	0.99519389769978	-45.2478812889214	0.0445200770962653	41.453146321535
426000000	0.0446880013708709	41.2464915733596	0.995176723016915	-45.460615269192	0.995176723016915	-45.460615269192	0.0446878850812616	41.2502564229022
428000000	0.0448553408660977	41.043500073192	0.99515956251242	-45.6733453888388	0.99515956251242	-45.6733453888388	0.0448552230228276	41.0473139212583
430000000	0.0450222087673903	40.8404561885568	0.995142416328163	-45.8860716536511	0.995142416328163	-45.8860716536511	0.0450220893529117	40.8443195000642
432000000	0.0451886035100658	40.637360588939	0.995125284608566	-46.0987940693842	0.995125284608566	-46.0987940693842	0.045188482507191	40.6412738308748
434000000	0.0453545235331808	40.4342139321718	0.995108167500527	-46.3115126417641	0.995108167500527	-46.3115126417641	0.045354400925064	40.4381775736152
436000000	0.0455199672795228	40.2310168647043	0.995091065153359	-46.5242273764919	0.995091065153359	-46.5242273764919	0.0455198430496409	40.2350313768524
438000000	0.0456849331956047	40.0277700218665	0.995073977718731	-46.736938279247	0.995073977718731	-46.736938279247	0.0456848073277383	40.0318358780575
440000000	0.0458494197316561	39.824474028125	0.995056905350616	-46.9496453556908	0.995056905350616	-46.9496453556908	0.0458492922098744	39.8285917038624
442000000	0.0460134253416231	39.6211294973308	0.995039848205218	-47.162348611471	0.995039848205218	-47.162348611471	0.0460132961502654	39.6252994703071
444000000	0.046176948483163	39.4177370329636	0.99502280644093	-47.375048052224	0.99502280644093	-47.375048052224	0.046176817606824	39.4219597830818
446000000	0.0463399876176434	39.2142972283665	0.995005780218263	-47.5877436835788	0.995005780218263	-47.5877436835788	0.0463398550411571	39.2185732377664
448000000	0.046502541210142	39.0108106669763	0.994988769699801	-47.8004355111604	0.994988769699801	-47.8004355111604	0.0465024069185677	39.0151404200548
450000000	0.0466646077294474	38.8072779225465	0.994971775050143	-48.013123540592	0.994971775050143	-48.013123540592	0.0466644717080548	38.8116619059809
452000000	0.0468261856480604	38.6036995593654	0.994954796435842	-48.2258077774989	0.994954796435842	-48.2258077774989	0.0468260478823167	38.608138262136
454000000	0.0469872734421981	38.4000761324669	0.99493783402536	-48.4384882275109	0.99493783402536	-48.4384882275109	0.0469871339177553	38.4045700458785
456000000	0.0471478695917965	38.196408187838	0.994920887989016	-48.651164896265	0.994920887989016	-48.651164896265	0.047147728294478	38.2009578055414
458000000	0.0473079725805164	37.9926962626169	0.994903958498925	-48.8638377894084	0.994903958498925	-48.8638377894084	0.0473078294963059	37.9973020806312
460000000	0.0474675808957485	37.7889408852909	0.994887045728957	-49.0765069126003	0.994887045728957	-49.0765069126003	0.0474674360107785	37.7936034020238
462000000	0.0476266930286207	37.5851425758839	0.994870149854681	-49.2891722715158	0.994870149854681	-49.2891722715158	0.0476265463291615	37.5898622921536
464000000	0.0477853074740043	37.3813018461441	0.994853271053322	-49.5018338718466	0.994853271053322	-49.5018338718466	0.0477851589464537	37.3860792651985
466000000	0.0479434227305236	37.177419199721	0.994836409503709	-49.714491719304	0.994836409503709	-49.714491719304	0.0479432723613971	37.1822548272596
468000000	0.0481010373005644	36.9734951323429	0.994819565386222	-49.9271458196217	0.994819565386222	-49.9271458196217	0.048100885076486	36.9783894765353
470000000	0.0482581496902831	36.7695301319865	0.994802738882755	-50.1397961785571	0.994802738882755	-50.1397961785571	0.0482579955979759	36.774483703493
472000000	0.0484147584096173	36.5655246790439	0.99478593017667	-50.3524428018932	0.99478593017667	-50.3524428018932	0.0484146024358958	36.5705379910345
474000000	0.0485708619722978	36.3614792464828	0.994769139452738	-50.5650856954416	0.994769139452738	-50.5650856954416	0.0485707041040585	36.3665528146572
476000000	0.0487264588958583	36.1573943000051	0.994752366897117	-50.7777248650436	0.994752366897117	-50.7777248650436	0.048726299120073	36.162528642611
478000000	0.0488815477016484	35.9532702982006	0.994735612697288	-50.9903603165719	0.994735612697288	-50.9903603165719	0.0488813860053571	35.9584659360526
480000000	0.0490361269148473	35.7491076926954	0.994718877042023	-51.2029920559328	0.994718877042023	-51.2029920559328	0.0490359632851509	35.7543651491929
482000000	0.0491901950644746	35.544906928298	0.99470216012134	-51.4156200890679	0.99470216012134	-51.4156200890679	0.0491900294885287	35.5502267294434
484000000	0.0493437506834061	35.34066844314	0.994685462126464	-51.6282444219553	0.994685462126464	-51.6282444219553	0.0493435831484144	35.3460511175572
486000000	0.0494967923083869	35.136392668816	0.994668783249785	-51.8408650606115	0.994668783249785	-51.8408650606115	0.0494966228015962	35.1418387477671
488000000	0.0496493184800457	34.9320800305147	0.994652123684814	-52.0534820110929	0.994652123684814	-52.0534820110929	0.0496491469887395	34.9375900479183
490000000	0.0498013277429099	34.7277309471539	0.994635483626153	-52.2660952794971	0.994635483626153	-52.2660952794971	0.0498011542544045	34.7333054396009
492000000	0.0499528186454208	34.5233458315044	0.994618863269448	-52.4787048719643	0.994618863269448	-52.4787048719643	0.0499526431470599	34.5289853382765
494000000	0.0501037897399501	34.3189250903162	0.994602262811356	-52.6913107946787	0.994602262811356	-52.6913107946787	0.0501036122191003	34.3246301534008
496000000	0.050254239582814	34.1144691244392	0.994585682449507	-52.9039130538699	0.994585682449507	-52.9039130538699	0.0502540600268609	34.1202402885467
498000000	0.0504041667342909	33.9099783289407	0.994569122382462	-53.1165116558139	0.994569122382462	-53.1165116558139	0.0504039851306349	33.9158161415205
500000000	0.0505535697586372	33.7054530932203	0.994552582809693	-53.3291066068344	0.994552582809693	-53.3291066068344	0.0505533860946903	33.7113581044773
505000000	0.0509247748773334	33.1939918335517	0.994511324856901	-53.8605780535391	0.994511324856901	-53.8605780535391	0.050924586007635	33.2000672668647
510000000	0.0512926730029864	32.6823235574414	0.994470199399807	-54.3920268228961	0.994470199399807	-54.3920268228961	0.0512924788489579	32.6885729126555
515000000	0.0516572420329953	32.1704539130555	0.994429209619742	-54.9234530179141	0.994429209619742	-54.9234530179141	0.0516570425160157	32.1768807343099
520000000	0.0520184600249105	31.6583883554868	0.994388358724092	-55.4548567437406	0.994388358724092	-55.4548567437406	0.0520182550662456	31.6649962317824
525000000	0.0523763051982065	31.1461321557391	0.994347649943262	-55.9862381077451	0.994347649943262	-55.9862381077451	0.0523760947189564	31.1529247214894
530000000	0.0527307559360756	30.6336904091689	0.994307086527823	-56.5175972195909	0.994307086527823	-56.5175972195909	0.0527305398571419	30.6406713447334
535000000	0.0530817907872425	30.1210680434177	0.994266671745739	-57.0489341913023	0.994266671745739	-57.0489341913023	0.0530815690293102	30.128241075625
540000000	0.0534293884677863	29.6082698258742	0.994226408879722	-57.5802491373218	0.994226408879722	-57.5802491373218	0.0534291609513218	29.6156387285299
545000000	0.0537735278629699	29.0953003706967	0.994186301224708	-58.1115421745641	0.994186301224708	-58.1115421745641	0.0537732945082315	29.1028689650832
550000000	0.0541141880290663	28.582164145428	0.994146352085405	-58.6428134224622	0.994146352085405	-58.6428134224622	0.0541139487561255	28.5899363007923
555000000	0.0544513481951793	28.0688654772283	0.994106564773962	-59.1740630030093	0.994106564773962	-59.1740630030093	0.0544511029239543	28.0768451112642
560000000	0.0547849877650544	27.5554085587539	0.994066942607713	-59.7052910407945	0.994066942607713	-59.7052910407945	0.0547847364153512	27.5635996380774
565000000	0.0551150863188787	27.0417974537065	0.99402748890701	-60.236497663036	0.99402748890701	-60.236497663036	0.0551148288104399	27.0502039943241
570000000	0.0554416236150577	26.5280361020735	0.993988206993146	-60.7676829996076	0.993988206993146	-60.7676829996076	0.0554413598676192	26.5366621698501
575000000	0.0557645795919797	26.0141283250828	0.993949100186328	-61.2988471830637	0.993949100186328	-61.2988471830637	0.0557643095253312	26.0229780362046
580000000	0.0560839343697526	25.5000778298895	0.993910171803747	-61.8299903486597	0.993910171803747	-61.8299903486597	0.0560836579038049	25.5091553513268
585000000	0.056399668251919	24.9858882140141	0.993871425157704	-62.3611126343679	0.993871425157704	-62.3611126343679	0.0563993853067751	24.9951977639836
590000000	0.0567117617271474	24.4715629695472	0.993832863553791	-62.8922141808927	0.993832863553791	-62.8922141808927	0.0567114722231739	24.4811088179764
595000000	0.0570201954708911	23.9571054871382	0.99379449028914	-63.4232951316817	0.99379449028914	-63.4232951316817	0.0570198993287973	23.9668919561308
600000000	0.0573249503470264	23.442519059781	0.993756308650726	-63.9543556329327	0.993756308650726	-63.9543556329327	0.0573246474879398	23.4525505240867
605000000	0.0576260074094547	22.9278068864116	0.993718321913714	-64.4853958336016	0.993718321913714	-64.4853958336016	0.0576256977550016	22.9380877738993
610000000	0.057923347903679	22.4129720753263	0.993680533339861	-65.0164158854049	0.993680533339861	-65.0164158854049	0.0579230313760648	22.4235068674641
615000000	0.0582169532683505	21.8980176474398	0.993642946175971	-65.5474159428207	0.993642946175971	-65.5474159428207	0.058216629790439	21.9088108797798
620000000	0.0585068051367824	21.3829465393832	0.993605563652368	-66.0783961630895	0.993605563652368	-66.0783961630895	0.058506474632178	21.3940028020547
625000000	0.0587928853384364	20.8677616064627	0.993568388981438	-66.6093567062096	0.993568388981438	-66.6093567062096	0.0587925477315617	20.8790855446725
630000000	0.059075175900376	20.3524656254799	0.993531425356189	-67.1402977349345	0.993531425356189	-67.1402977349345	0.0590748311165519	20.3640619400227
635000000	0.0593536590486908	19.8370612974269	0.993494675948857	-67.6712194147651	0.993494675948857	-67.6712194147651	0.0593533070142152	19.8489347452047
640000000	0.0596283172098909	19.3215512500638	0.993458143909533	-68.202121913943	0.993458143909533	-68.202121913943	0.0596279578521155	19.3337066446155
645000000	0.0598991330122729	18.8059380403831	0.993421832364843	-68.7330054034399	0.993421832364843	-68.7330054034399	0.0598987662596776	18.8183802524262
650000000	0.0601660892872531	18.2902241569718	0.993385744416631	-69.2638700569475	0.993385744416631	-69.2638700569475	0.0601657150695206	18.3029581149559
655000000	0.0604291690706761	17.7744120222746	0.993349883140697	-69.7947160508637	0.993349883140697	-69.7947160508637	0.0604287873187633	17.7874427129472
660000000	0.0606883556040921	17.2585039947662	0.993314251585536	-70.32554356428	0.993314251585536	-70.32554356428	0.060687966250301	17.2718364637523
665000000	0.0609436323360094	16.7425023710369	0.993278852771124	-70.8563527789652	0.993278852771124	-70.8563527789652	0.0609432353140545	16.7561417234317
670000000	0.0611949829231164	16.2264093877974	0.993243689687715	-71.3871438793494	0.993243689687715	-71.3871438793494	0.0611945781681922	16.2403607887749
675000000	0.0614423912314821	15.7102272238066	0.993208765294666	-71.9179170525049	0.993208765294666	-71.9179170525049	0.0614419786803263	15.7244958992427
680000000	0.061685841337727	15.1939580017284	0.99317408251928	-72.4486724881284	0.99317408251928	-72.4486724881284	0.0616854209286833	15.2085492388394
685000000	0.0619253175301715	14.6776037899213	0.993139644255673	-72.9794103785197	0.993139644255673	-72.9794103785197	0.0619248892032497	14.6925229379198
690000000	0.0621608043099593	14.1611666041623	0.993105453363663	-73.5101309185606	0.993105453363663	-73.5101309185606	0.0621603680068941	14.1764190749287
695000000	0.0623922863921574	13.6446484093132	0.993071512667677	-74.0408343056912	0.993071512667677	-74.0408343056912	0.0623918420564653	13.6602396780854
700000000	0.0626197487068364	13.1280511209271	0.993037824955669	-74.571520739887	0.993037824955669	-74.571520739887	0.0626192962838689	13.1439867270089
705000000	0.0628431764001236	12.611376606804	0.993004392978063	-75.1021904236334	0.993004392978063	-75.1021904236334	0.0628427158371223	12.6276621542902
710000000	0.0630625548352407	12.0946266884941	0.992971219446723	-75.6328435618997	0.992971219446723	-75.6328435618997	0.0630620860813873	12.1112678470165
715000000	0.0632778695935185	11.5778031427531	0.992938307033913	-76.1634803621117	0.992938307033913	-76.1634803621117	0.063277392599985	11.5948056482438
720000000	0.0634891064753925	11.0609077029519	0.992905658371305	-76.6941010341233	0.992905658371305	-76.6941010341233	0.0634886211953889	11.0782773584295
725000000	0.0636962515013794	10.5439420604437	0.992873276048976	-77.2247057901882	0.992873276048976	-77.2247057901882	0.063695757890202	10.5616847368177
730000000	0.0638992909130373	10.0269078658898	0.992841162614443	-77.755294844928	0.992841162614443	-77.755294844928	0.0638987889281132	10.0450295027865
735000000	0.0640982111739069	9.50980673054646	0.992809320571697	-78.2858684153023	0.992809320571697	-78.2858684153023	0.0640977007748393	9.52831333715706
740000000	0.0642929989704362	8.99264022751426	0.99277775238026	-78.8164267205752	0.99277775238026	-78.8164267205752	0.0642924801190484	9.01153788346441
745000000	0.0644836412128912	8.47540989295332	0.992746460454257	-79.3469699822831	0.992746460454257	-79.3469699822831	0.0644831138732691	8.49470474919571
750000000	0.0646701250362485	7.95811722726503	0.992715447161498	-79.8774984241992	0.992715447161498	-79.8774984241992	0.0646695891747831	7.97781550699357
755000000	0.0648524378010756	7.44076369624007	0.992684714822587	-80.4080122722991	0.992684714822587	-80.4080122722991	0.0648518933865037	7.46087169582992
760000000	0.0650305670943959	6.92335073217844	0.992654265710026	-80.9385117547245	0.992654265710026	-80.9385117547245	0.0650300140978431	6.94387482214836
765000000	0.0652045007305413	6.40587973497934	0.992624102047352	-81.4689971017457	0.992624102047352	-81.4689971017457	0.0652039391255608	6.42682636097884
770000000	0.0653742267519893	5.88835207320321	0.992594226008281	-81.9994685457241	0.992594226008281	-81.9994685457241	0.0653736565146052	5.90972775702567
775000000	0.065539733430193	5.37076908510757	0.992564639715867	-82.5299263210718	0.992564639715867	-82.5299263210718	0.0655391545389379	5.39258042572803
780000000	0.0657010092663922	4.85313207965792	0.992535345241672	-83.0603706642143	0.992535345241672	-83.0603706642143	0.0657004217023507	4.87538575429753
785000000	0.0658580429924195	4.33544233751366	0.992506344604961	-83.5908018135471	0.992506344604961	-83.5908018135471	0.065857446739268	4.35814510273145
790000000	0.0660108235714919	3.81770111199205	0.992477639771903	-84.1212200093954	0.992477639771903	-84.1212200093954	0.0660102186155397	3.84085980480317
795000000	0.0661593401989922	3.29990963000829	0.992449232654783	-84.6516254939716	0.992449232654783	-84.6516254939716	0.0661587265292242	3.3235311690311
800000000	0.0663035823032416	2.78206909299697	0.992421125111246	-85.1820185113319	0.992421125111246	-85.1820185113319	0.0663029599113601	2.80616047962799
805000000	0.0664435395462627	2.26418067781014	0.992393318943539	-85.7123993073313	0.992393318943539	-85.7123993073313	0.0664429084267305	2.28874899742893
810000000	0.0665792018245296	1.7462455375979	0.992365815897769	-86.2427681295798	0.992365815897769	-86.2427681295798	0.0665785619746143	1.77129796080137
815000000	0.0667105592697155	1.22826480267009	0.992338617663196	-86.7731252273957	0.992338617663196	-86.7731252273957	0.0667099106895334	1.2538085865382
820000000	0.0668376022494239	0.710239581339161	0.992311725871509	-87.3034708517595	0.992311725871509	-87.3034708517595	0.0668369449419866	0.736282070731033
825000000	0.0669603213679179	0.192170960746765	0.992285142096153	-87.833805255266	0.992285142096153	-87.833805255266	0.066959655339179	0.218719589628859
830000000	0.067078707466838	-0.325939992327246	0.992258867851636	-88.3641286920768	0.992258867851636	-88.3641286920768	0.06707803272574	-0.298877699518653
835000000	0.0671927516259113	-0.844092230670059	0.992232904592885	-88.8944414178704	0.992232904592885	-88.8944414178704	0.0671920681844363	-0.816508657634345
840000000	0.0673024451636558	-1.36228472585821	0.992207253714593	-89.4247436897935	0.992207253714593	-89.4247436897935	0.0673017530368744	-1.33417216300126
845000000	0.0674077796380748	-1.88051646749319	0.992181916550595	-89.9550357664101	0.992181916550595	-89.9550357664101	0.0674070788441989	-1.85186711046251
850000000	0.0675087468473436	-2.39878646245135	0.992156894373257	-90.4853179076504	0.992156894373257	-90.4853179076504	0.0675080374077792	-2.3695924106346
855000000	0.067605338830492	-2.9170937341477	0.992132188392877	-91.015590374759	0.992132188392877	-91.015590374759	0.067604620769894	-2.88734698913594
860000000	0.0676975478680756	-3.43543732181225	0.992107799757112	-91.5458534302421	0.992107799757112	-91.5458534302421	0.0676968212144036	-3.4051297858231
865000000	0.0677853664828425	-3.95381627977821	0.992083729550415	-92.0761073378154	0.992083729550415	-92.0761073378154	0.067784631267419	-3.92293975404126
870000000	0.0678687874403939	-4.47222967678287	0.992059978793485	-92.6063523623489	0.992059978793485	-92.6063523623489	0.0678680436979624	-4.44077585988514
875000000	0.0679478037498343	-4.99067659527935	0.992036548442747	-93.1365887698136	0.992036548442747	-93.1365887698136	0.0679470515186215	-4.95863708146864
880000000	0.068022408664418	-5.50915613075864	0.99201343938983	-93.6668168272252	0.99201343938983	-93.6668168272252	0.0680216479861958	-5.47652240820621
885000000	0.068092595682189	-6.02766739108269	0.991990652461087	-94.1970368025897	0.991990652461087	-94.1970368025897	0.0680918266023372	-5.99443084010183
