!Generated from: D:\Work\cadence_lib\blocks_symbols\fixture01_worst_case_intermed2.spd
! Port1::OUT
! Port2::OUT
!
!PowerSI Version: 16.0.0.02091.0   000
!Computer Host Name: DESKTOP-JQNU4CJ
!
!TouchstoneFormatFlag = 1
! GNDNET GND
! NETSLIST 
!ENCODED_BEGIN
!0889B71221DAF54192BECE6985861F1178E3CF1522971D6992DC39A223786694703D55A53EC5558E184E2ACE
!ENCODED_END
!
#	Hz	S	MA	R	50
100000000	0.0365460092650763	76.1285856943372	0.997193748620416	-10.8200550797551	0.997193748620416	-10.8200550797551	0.0365460080212761	76.1286652232642
102000000	0.0372458398759927	75.9430615129357	0.997145885888046	-11.0350522562915	0.997145885888046	-11.0350522562915	0.0372458382918794	75.9431473223961
104000000	0.0379448844346185	75.7568264994404	0.997097804125979	-11.2500255599263	0.997097804125979	-11.2500255599263	0.0379448826683665	75.7569180218929
106000000	0.0386431464170463	75.5699085855927	0.997049495950455	-11.4649753133066	0.997049495950455	-11.4649753133066	0.0386431446015345	75.5700053025878
108000000	0.0393406282845414	75.3823340217596	0.997000954495103	-11.6799017979181	0.997000954495103	-11.6799017979181	0.039340626529351	75.3824354626545
110000000	0.0400373315659046	75.1941275599022	0.996952173392015	-11.8948052584664	0.996952173392015	-11.8948052584664	0.0400373299593092	75.1942333002502
112000000	0.0407332569345026	75.0053126088297	0.996903146751253	-12.1096859068041	0.996903146751253	-12.1096859068041	0.0407332555454215	75.005422268512
114000000	0.0414284042801004	74.8159113662995	0.996853869139386	-12.324543925447	0.996853869139386	-12.324543925447	0.0414284031600118	74.8160246074731
116000000	0.0421227727756869	74.6259449317714	0.996804335557489	-12.5393794707167	0.996804335557489	-12.5393794707167	0.0421227719604606	74.6260614566831
118000000	0.0428163609394727	74.4354334029708	0.996754541419005	-12.7541926755488	0.996754541419005	-12.7541926755488	0.0428163604511398	74.4355529516911
120000000	0.0435091666923154	74.2443959589139	0.996704482527732	-12.9689836519966	0.996704482527732	-12.9689836519966	0.043509166540745	74.2445183070234
122000000	0.0442011874107859	74.052850931596	0.996654155056191	-13.1837524934645	0.996654155056191	-13.1837524934645	0.0442011875952733	74.0529758878553
124000000	0.0448924199761355	73.8608158681697	0.996603555524553	-13.3984992766951	0.996603555524553	-13.3984992766951	0.0448924204868931	73.8609432722169
126000000	0.0455828608193933	73.6683075851597	0.996552680780233	-13.6132240635394	0.996552680780233	-13.6132240635394	0.0455828616389463	73.6684373052346
128000000	0.0462725059628538	73.4753422159779	0.996501527978289	-13.8279269025296	0.996501527978289	-13.8279269025296	0.046272507067331	73.4754741467027
130000000	0.046961351058174	73.2819352528107	0.996450094562665	-14.042607830278	0.996450094562665	-14.042607830278	0.0469613524185034	73.2820693130488
132000000	0.0476493914213223	73.0881015837663	0.996398378248324	-14.2572668727193	0.996398378248324	-14.2572668727193	0.0476493930043277	73.088237714553
134000000	0.0483366220645963	72.8938555260252	0.99634637700431	-14.4719040462139	0.99634637700431	-14.4719040462139	0.048336623833994	72.8939936885945
136000000	0.049023037725919	72.6992108556035	0.996294089037734	-14.6865193585274	0.996294089037734	-14.6865193585274	0.0490230396432268	72.6993510295051
138000000	0.0497086328956197	72.5041808342542	0.996241512778685	-14.9011128097006	0.996241512778685	-14.9011128097006	0.0497086349209676	72.5043230155721
140000000	0.0503934018408836	72.3087782339298	0.99618864686604	-15.1156843928203	0.99618864686604	-15.1156843928203	0.0503934039337449	72.3089224336028
142000000	0.0510773386280535	72.1130153591684	0.996135490134173	-15.330234094705	0.996135490134173	-15.330234094705	0.051077340747887	72.1131616014098
144000000	0.0517604371429535	71.9169040676943	0.996082041600505	-15.544761896513	0.996082041600505	-15.544761896513	0.0517604392497694	71.9170523885201
146000000	0.052442691109386	71.7204557894945	0.996028300453882	-15.7592677742819	0.996028300453882	-15.7592677742819	0.0524426931642391	71.7206062353445
148000000	0.0531240941059586	71.5236815445682	0.995974266043751	-15.9737516994093	0.995974266043751	-15.9737516994093	0.0531240960713667	71.523834171031
150000000	0.053804639581368	71.3265919595265	0.995919937870062	-16.188213639079	0.995919937870062	-16.188213639079	0.0538046414216701	71.3267468301618
152000000	0.054484320868277	71.1291972831872	0.995865315573906	-16.4026535566406	0.995865315573906	-16.4026535566406	0.0544843225499255	71.1293544684383
154000000	0.055163131195899	70.9315074012875	0.995810398928803	-16.6170714119482	0.995810398928803	-16.6170714119482	0.055163132687698	70.9316669774837
156000000	0.055841063701399	70.7335318504097	0.995755187832635	-16.831467161662	0.995755187832635	-16.831467161662	0.0558410649746919	70.7336938988559
158000000	0.0565181114402187	70.5352798312081	0.995699682300165	-17.0458407595178	0.995699682300165	-17.0458407595178	0.0565181124690241	70.5354444373597
160000000	0.057194267395407	70.3367602210136	0.995643882456114	-17.2601921565683	0.995643882456114	-17.2601921565683	0.0571942681565142	70.3369274737205
162000000	0.0578695244860614	70.1379815858612	0.995587788528758	-17.4745213013999	0.995587788528758	-17.4745213013999	0.0578695249590852	70.1381515766951
164000000	0.0585438755749361	69.9389521920059	0.995531400844006	-17.6888281403268	0.995531400844006	-17.6888281403268	0.0585438757423363	69.939125014652
166000000	0.0592173134753179	69.7396800169566	0.995474719819929	-17.9031126175667	0.995474719819929	-17.9031126175667	0.0592173133223861	69.7398557666714
168000000	0.0598898309572105	69.5401727600735	0.995417745961713	-18.1173746753991	0.995417745961713	-18.1173746753991	0.0598898304720297	69.5403515332052
170000000	0.0605614207529075	69.3404378527553	0.995360479856985	-18.3316142543092	0.995360479856985	-18.3316142543092	0.0605614199262861	69.3406197463216
172000000	0.0612320755620065	69.1404824682383	0.995302922171517	-18.545831293119	0.995302922171517	-18.545831293119	0.0612320743873906	69.1406675795539
174000000	0.0619017880559107	68.9403135310392	0.995245073645248	-18.760025729106	0.995245073645248	-18.760025729106	0.0619017865292785	68.940501957398
176000000	0.0625705508818762	68.7399377260503	0.995186935088619	-18.9741974981134	0.995186935088619	-18.9741974981134	0.0625705490016155	68.7401295644497
178000000	0.0632383566666369	68.5393615073144	0.995128507379187	-19.1883465346508	0.995128507379187	-19.1883465346508	0.0632383544334106	68.5395568542235
180000000	0.0639051980196594	68.3385911064846	0.995069791458502	-19.4024727719872	0.995069791458502	-19.4024727719872	0.0639051954362595	68.3387900576513
182000000	0.0645710675360555	68.1376325409924	0.995010788329222	-19.6165761422376	0.995010788329222	-19.6165761422376	0.0645710646072484	68.1378351912831
184000000	0.0652359577991874	67.9364916219261	0.994951499052449	-19.8306565764434	0.994951499052449	-19.8306565764434	0.0652359545315549	67.9366980652016
186000000	0.0658998613830024	67.7351739616359	0.994891924745269	-20.0447140046483	0.994891924745269	-20.0447140046483	0.0658998577847768	67.7353842906535
188000000	0.0665627708541156	67.5336849810738	0.994832066578471	-20.2587483559691	0.994832066578471	-20.2587483559691	0.0665627669350122	67.5338992874202
190000000	0.0672246787736751	67.3320299168826	0.994771925774444	-20.4727595586622	0.994771925774444	-20.4727595586622	0.0672246745447246	67.332248290925
192000000	0.0678855776990228	67.1302138282283	0.994711503605224	-20.6867475401878	0.994711503605224	-20.6867475401878	0.0678855731724052	67.130436359092
194000000	0.0685454601851844	66.9282416034054	0.994650801390686	-20.9007122272696	0.994650801390686	-20.9007122272696	0.0685454553740618	66.9284683789678
196000000	0.0692043187861938	66.7261179662009	0.994589820496866	-21.1146535459528	0.994589820496866	-21.1146535459528	0.0692043137045518	66.7263490731012
198000000	0.0698621460562827	66.5238474820373	0.9945285623344	-21.3285714216591	0.9945285623344	-21.3285714216591	0.0698621407187694	66.5240830057062
200000000	0.0705189345509411	66.3214345638968	0.994467028357075	-21.5424657792394	0.994467028357075	-21.5424657792394	0.0705189289727169	66.3216745885938
202000000	0.0711746768278654	66.1188834780384	0.994405220060476	-21.7563365430251	0.994405220060476	-21.7563365430251	0.0711746710244557	66.1191280869015
204000000	0.0718293654478135	65.9161983495064	0.994343138980725	-21.9701836368773	0.994343138980725	-21.9701836368773	0.0718293594349691	65.9164476246137
206000000	0.0724829929753661	65.7133831674381	0.994280786693303	-22.1840069842341	0.994280786693303	-22.1840069842341	0.0724829867689307	65.7136371898754
208000000	0.0731355519796195	65.5104417901867	0.994218164811947	-22.3978065081569	0.994218164811947	-22.3978065081569	0.0731355455954049	65.5107006401209
210000000	0.0737870350348072	65.3073779502484	0.994155274987611	-22.6115821313752	0.994155274987611	-22.6115821313752	0.073787028488476	65.3076417070083
212000000	0.0744374347208619	65.1041952590171	0.994092118907497	-22.8253337763299	0.994092118907497	-22.8253337763299	0.0744374280278202	65.1044640011769
214000000	0.0750867436239321	64.9008972113553	0.994028698294137	-23.0390613652162	0.994028698294137	-23.0390613652162	0.0750867367992304	64.9011710168213
216000000	0.0757349543368537	64.6974871900019	0.99396501490453	-23.2527648200242	0.99396501490453	-23.2527648200242	0.0757349473950928	64.6977661361022
218000000	0.0763820594595801	64.493968469812	0.993901070529321	-23.4664440625795	0.993901070529321	-23.4664440625795	0.0763820524148322	64.4942526333859
220000000	0.0770280515995852	64.2903442218368	0.993836866992028	-23.6800990145827	0.993836866992028	-23.6800990145827	0.0770280444653188	64.2906336793245
222000000	0.0776729233722388	64.0866175172506	0.993772406148308	-23.8937295976472	0.993772406148308	-23.8937295976472	0.0776729161612551	64.0869123447853
224000000	0.0783166674011585	63.8827913311267	0.993707689885249	-24.1073357333372	0.993707689885249	-24.1073357333372	0.0783166601255327	63.883091604623
226000000	0.0789592763185392	63.6788685460726	0.993642720120708	-24.3209173432042	0.993642720120708	-24.3209173432042	0.0789592689895759	63.6791743413129
228000000	0.0796007427654761	63.4748519557196	0.993577498802669	-24.5344743488224	0.993577498802669	-24.5344743488224	0.0796007353936669	63.4751633484429
230000000	0.0802410593922654	63.270744268083	0.993512027908628	-24.7480066718245	0.993512027908628	-24.7480066718245	0.0802410519872599	63.271061334064
232000000	0.0808802188587031	63.0665481087881	0.993446309445009	-24.9615142339349	0.993446309445009	-24.9615142339349	0.0808802114292812	63.066870923921
234000000	0.08151821383437	62.8622660241719	0.99338034544659	-25.174996957004	0.99338034544659	-25.174996957004	0.0815182063884298	62.8625946645452
236000000	0.0821550369989186	62.6579004842604	0.993314137975964	-25.3884547630405	0.993314137975964	-25.3884547630405	0.0821550295434608	62.6582350262337
238000000	0.0827906810423457	62.4534538856355	0.993247689123003	-25.6018875742434	0.993247689123003	-25.6018875742434	0.0827906735834754	62.453794405907
240000000	0.0834251386652732	62.2489285541774	0.993181001004355	-25.8152953130332	0.993181001004355	-25.8152953130332	0.0834251312081996	62.2492751298524
242000000	0.0840584025792221	62.0443267477093	0.993114075762939	-26.0286779020826	0.993114075762939	-26.0286779020826	0.0840583951282679	62.0446794563627
244000000	0.0846904655068831	61.8396506585286	0.993046915567469	-26.2420352643461	0.993046915567469	-26.2420352643461	0.0846904580654994	61.8400095782634
246000000	0.0853213201823989	61.6349024158394	0.992979522611981	-26.4553673230894	0.992979522611981	-26.4553673230894	0.0853213127531838	61.6352676253406
248000000	0.0859509593516363	61.4300840880862	0.992911899115377	-26.6686740019174	0.992911899115377	-26.6686740019174	0.0859509519363561	61.4304556666751
250000000	0.0865793757724626	61.2251976851971	0.992844047320976	-26.8819552248025	0.992844047320976	-26.8819552248025	0.0865793683720845	61.2255757128736
252000000	0.0872065622150339	61.02024516073	0.992775969496082	-27.0952109161116	0.992775969496082	-27.0952109161116	0.0872065548297509	61.0206297182196
254000000	0.0878325114620705	60.8152284139349	0.992707667931552	-27.308441000632	0.992707667931552	-27.308441000632	0.0878325040913398	60.815619582726
256000000	0.0884572163091451	60.6101492917342	0.992639144941377	-27.5216454035982	0.992639144941377	-27.5216454035982	0.0884572089517259	60.6105471541126
258000000	0.0890806695649738	60.4050095906165	0.992570402862271	-27.734824050716	0.992570402862271	-27.734824050716	0.0890806622189638	60.4054142296987
260000000	0.0897028640517039	60.1998110584574	0.992501444053271	-27.947976868188	0.992501444053271	-27.947976868188	0.0897028567145846	60.2002225582179
262000000	0.09032379260521	59.9945553962642	0.992432270895335	-28.161103782737	0.992432270895335	-28.161103782737	0.0903237852738877	59.9949738415596
264000000	0.0909434480753915	59.7892442598468	0.992362885790955	-28.3742047216293	0.992362885790955	-28.3742047216293	0.090943440746242	59.7896697364377
266000000	0.0915618233264668	59.5838792614226	0.992293291163767	-28.5872796126979	0.992293291163767	-28.5872796126979	0.0915618159953828	59.5843118559918
268000000	0.0921789112372799	59.3784619711525	0.992223489458179	-28.8003283843641	0.992223489458179	-28.8003283843641	0.0921789038997174	59.378901771319
270000000	0.0927947047016024	59.1729939186136	0.992153483138995	-29.0133509656593	0.992153483138995	-29.0133509656593	0.0927946973526232	59.1734410129459
272000000	0.0934091966284339	58.9674765942127	0.992083274691044	-29.2263472862461	0.992083274691044	-29.2263472862461	0.0934091892627579	58.9679310722389
274000000	0.0940223799423145	58.7619114505395	0.992012866618818	-29.4393172764386	0.992012866618818	-29.4393172764386	0.0940223725543603	58.7623734027511
276000000	0.0946342475836274	58.5562999036606	0.991942261446112	-29.6522608672224	0.991942261446112	-29.6522608672224	0.0946342401675608	58.5567694215226
278000000	0.0952447925089078	58.3506433343672	0.991871461715672	-29.8651779902738	0.991871461715672	-29.8651779902738	0.0952447850586856	58.3511205103156
280000000	0.0958540076911515	58.1449430893611	0.991800469988838	-30.0780685779788	0.991800469988838	-30.0780685779788	0.0958540002005662	58.145428016807
282000000	0.0964618861201234	57.9392004823996	0.991729288845203	-30.2909325634514	0.991729288845203	-30.2909325634514	0.0964618785828433	57.9396932557261
284000000	0.0970684208026628	57.7334167953869	0.99165792088227	-30.5037698805512	0.99165792088227	-30.5037698805512	0.0970684132122755	57.7339175099476
286000000	0.0976736047629921	57.5275932794237	0.991586368715107	-30.716580463901	0.991586368715107	-30.716580463901	0.0976735971130409	57.5281020315372
288000000	0.0982774310430229	57.3217311558095	0.991514634976015	-30.9293642489038	0.991514634976015	-30.9293642489038	0.0982774233270451	57.3222480427549
290000000	0.0988798927026592	57.1158316170064	0.991442722314199	-31.1421211717583	0.991442722314199	-31.1421211717583	0.0988798849142227	57.1163567370171
292000000	0.0994809828200987	56.9098958275611	0.991370633395432	-31.354851169476	0.991370633395432	-31.354851169476	0.0994809749528335	56.9104292798147
294000000	0.100080694492133	56.7039249249864	0.991298370901734	-31.5675541798957	0.991298370901734	-31.5675541798957	0.100080686539764	56.7044668096005
296000000	0.10067902083445	56.497920020611	0.991225937531048	-31.7802301416991	0.991225937531048	-31.7802301416991	0.100679012790825	56.49847043863
298000000	0.101275954981918	56.2918822003892	0.991153335996922	-31.9928789944249	0.991153335996922	-31.9928789944249	0.101275946841034	56.2924412537782
300000000	0.101871490088887	56.08581252568	0.991080569028189	-32.2055006784837	0.991080569028189	-32.2055006784837	0.101871481844918	56.0863803173112
302000000	0.102465619329473	55.8797120339919	0.991007639368656	-32.4180951351707	0.991007639368656	-32.4180951351707	0.102465610976787	55.8802886676372
304000000	0.10305833589784	55.6735817396983	0.990934549776795	-32.63066230668	0.990934549776795	-32.63066230668	0.103058327431022	55.6741673200181
306000000	0.103649633008481	55.4674226347239	0.990861303025433	-32.8432021361172	0.990861303025433	-32.8432021361172	0.103649624422349	55.4680172672559
308000000	0.104239503896494	55.2612356892	0.990787901901444	-33.0557145675118	0.990787901901444	-33.0557145675118	0.104239495186118	55.2618394803498
310000000	0.104827941817855	55.0550218520975	0.990714349205454	-33.2681995458299	0.990714349205454	-33.2681995458299	0.104827932978563	55.0556349091275
312000000	0.105414940049678	54.8487820518294	0.990640647751536	-33.4806570169853	0.990640647751536	-33.4806570169853	0.105414931077072	54.849404482849
314000000	0.106000491890482	54.6425171968331	0.990566800366913	-33.693086927852	0.990566800366913	-33.693086927852	0.106000482780445	54.6431491107885
316000000	0.106584590660443	54.436228176125	0.990492809891668	-33.9054892262743	0.990492809891668	-33.9054892262743	0.106584581409146	54.436869682791
318000000	0.107167229701648	54.2299158598369	0.990418679178447	-34.1178638610784	0.990418679178447	-34.1178638610784	0.107167220305552	54.230567069807
320000000	0.107748402378336	54.0235810997287	0.99034441109217	-34.3302107820828	0.99034441109217	-34.3302107820828	0.107748392834196	54.0242421244068
322000000	0.108328102077138	53.8172247296791	0.990270008509752	-34.5425299401077	0.990270008509752	-34.5425299401077	0.108328092382003	53.8178956812727
324000000	0.108906322207311	53.6108475661629	0.990195474319807	-34.7548212869861	0.990195474319807	-34.7548212869861	0.108906312358523	53.6115285576727
326000000	0.109483056200967	53.404450408701	0.990120811422373	-34.9670847755724	0.990120811422373	-34.9670847755724	0.109483046196158	53.4051415539177
328000000	0.110058297513289	53.1980340403006	0.990046022728635	-35.1793203597521	0.990046022728635	-35.1793203597521	0.110058287350375	53.1987354537973
330000000	0.110632039622751	52.9915992278737	0.989971111160637	-35.3915279944505	0.989971111160637	-35.3915279944505	0.110632029299929	52.9923110250005
332000000	0.111204276031324	52.7851467226427	0.989896079651019	-35.6037076356418	0.989896079651019	-35.6037076356418	0.111204265547061	52.7858690195225
334000000	0.11177500026468	52.5786772605269	0.989820931142737	-35.8158592403573	0.989820931142737	-35.8158592403573	0.111774989617708	52.579410174051
336000000	0.112344205872388	52.3721915625174	0.989745668588795	-36.0279827666935	0.989745668588795	-36.0279827666935	0.112344195061691	52.3729352103427
338000000	0.112911886428102	52.165690335038	0.989670294951974	-36.2400781738201	0.989670294951974	-36.2400781738201	0.112911875452907	52.1664448355841
340000000	0.113478035529749	51.959174270291	0.989594813204572	-36.4521454219877	0.989594813204572	-36.4521454219877	0.113478024389514	51.9599397427386
342000000	0.114042646799701	51.7526440465915	0.989519226328133	-36.6641844725351	0.989519226328133	-36.6641844725351	0.114042635494102	51.7534206108812
344000000	0.11460571388495	51.5461003286887	0.989443537313188	-36.8761952878966	0.989443537313188	-36.8761952878966	0.114605702413869	51.5468881055202
346000000	0.11516723045727	51.3395437680773	0.989367749158998	-37.0881778316087	0.989367749158998	-37.0881778316087	0.115167218820782	51.3403428789112
348000000	0.115727190213378	51.1329750032974	0.989291864873292	-37.3001320683173	0.989291864873292	-37.3001320683173	0.115727178411735	51.1337855703533
350000000	0.116285586875085	50.9263946602211	0.989215887472012	-37.5120579637835	0.989215887472012	-37.5120579637835	0.116285574908702	50.9272168064821
352000000	0.116842414189441	50.7198033523345	0.989139819979063	-37.7239554848904	0.989139819979063	-37.7239554848904	0.116842402058883	50.7206372015484
354000000	0.117397665928879	50.5132016810062	0.989063665426055	-37.935824599649	0.989063665426055	-37.935824599649	0.117397653634844	50.5140473576866
