!Generated from: D:\Work\cadence_lib\blocks_symbols\fixture01_worst_case_lower.spd
! Port1::OUT
! Port2::OUT
!
!PowerSI Version: 16.0.0.02091.0   000
!Computer Host Name: DESKTOP-JQNU4CJ
!
!TouchstoneFormatFlag = 1
! GNDNET GND
! NETSLIST 
!ENCODED_BEGIN
!0889B71221DAF54192BECE6985861F1178E3CF1522971D6992DC39A223786694703D55A53EC5558E184E2ACE
!ENCODED_END
!
#	Hz	S	MA	R	50
100000000	0.0365460092650528	76.128585694335	0.99719374862042	-10.8200550797565	0.99719374862042	-10.8200550797565	0.0365460080212532	76.1286652232515
102000000	0.037245839875663	75.9430615129097	0.997145885888135	-11.0350522562925	0.997145885888135	-11.0350522562925	0.0372458382915869	75.9431473223348
104000000	0.0379448844340278	75.7568264994129	0.997097804126142	-11.2500255599273	0.997097804126142	-11.2500255599273	0.0379448826678436	75.7569180218023
106000000	0.0386431464162369	75.5699085855792	0.997049495950681	-11.4649753133078	0.997049495950681	-11.4649753133078	0.0386431446008175	75.570005302486
108000000	0.0393406282835502	75.3823340217721	0.997000954495384	-11.6799017979197	0.997000954495384	-11.6799017979197	0.0393406265284737	75.3824354625563
110000000	0.0400373315647664	75.1941275599486	0.996952173392341	-11.8948052584686	0.996952173392341	-11.8948052584686	0.0400373299583012	75.1942333001643
112000000	0.0407332569332464	75.0053126089139	0.996903146751617	-12.1096859068071	0.996903146751617	-12.1096859068071	0.0407332555443108	75.0054222684462
114000000	0.0414284042787551	74.8159113664255	0.996853869139779	-12.3245439254507	0.996853869139779	-12.3245439254507	0.0414284031588215	74.8160246074299
116000000	0.0421227727742764	74.6259449319391	0.996804335557906	-12.5393794707213	0.996804335557906	-12.5393794707213	0.0421227719592123	74.6260614566675
118000000	0.0428163609380186	74.4354334031784	0.996754541419439	-12.7541926755542	0.996754541419439	-12.7541926755542	0.0428163604498524	74.4355529517026
120000000	0.0435091666908368	74.2443959591587	0.996704482528177	-12.9689836520029	0.996704482528177	-12.9689836520029	0.0435091665394352	74.24451830706
122000000	0.0442011874092996	74.0528509318758	0.996654155056643	-13.1837524934716	0.996654155056643	-13.1837524934716	0.0442011875939565	74.052975887918
124000000	0.0448924199746552	73.8608158684802	0.996603555525006	-13.398499276703	0.996603555525006	-13.398499276703	0.0448924204855819	73.8609432723036
126000000	0.0455828608179325	73.6683075854977	0.996552680780682	-13.613224063548	0.996552680780682	-13.613224063548	0.0455828616376511	73.6684373053411
128000000	0.0462725059614224	73.4753422163384	0.996501527978734	-13.8279269025389	0.996501527978734	-13.8279269025389	0.0462725070660619	73.4754741468276
130000000	0.0469613510567812	73.2819352531892	0.9964500945631	-14.0426078302879	0.9964500945631	-14.0426078302879	0.0469613524172678	73.2820693131889
132000000	0.0476493914199746	73.0881015841584	0.996398378248748	-14.2572668727297	0.996398378248748	-14.2572668727297	0.0476493930031321	73.0882377147059
134000000	0.0483366220633003	72.8938555264268	0.99634637700472	-14.4719040462246	0.99634637700472	-14.4719040462246	0.0483366238328441	72.8939936887562
136000000	0.0490230377246797	72.6992108560104	0.996294089038128	-14.6865193585386	0.996294089038128	-14.6865193585386	0.0490230396421261	72.6993510296727
138000000	0.0497086328944401	72.5041808346627	0.996241512779062	-14.9011128097119	0.996241512779062	-14.9011128097119	0.0497086349199195	72.5043230157439
140000000	0.0503934018397659	72.3087782343368	0.9961886468664	-15.1156843928318	0.9961886468664	-15.1156843928318	0.0503934039327507	72.3089224337759
142000000	0.051077338627	72.1130153595695	0.996135490134515	-15.3302340947166	0.996135490134515	-15.3302340947166	0.0510773407469493	72.1131616015808
144000000	0.0517604371419646	71.916904068088	0.996082041600826	-15.5447618965246	0.996082041600826	-15.5447618965246	0.0517604392488887	71.9170523886883
146000000	0.0524426911084627	71.720455789878	0.996028300454184	-15.7592677742935	0.996028300454184	-15.7592677742935	0.0524426931634157	71.7206062355072
148000000	0.0531240941050997	71.5236815449401	0.995974266044032	-15.9737516994208	0.995974266044032	-15.9737516994208	0.0531240960706011	71.5238341711863
150000000	0.0538046395805731	71.3265919598832	0.995919937870324	-16.1882136390903	0.995919937870324	-16.1882136390903	0.0538046414209606	71.3267468303085
152000000	0.0544843208675439	71.1291972835283	0.995865315574148	-16.4026535566516	0.995865315574148	-16.4026535566516	0.0544843225492706	71.1293544685754
154000000	0.0551631311952265	70.9315074016117	0.995810398929025	-16.6170714119589	0.995810398929025	-16.6170714119589	0.0551631326870972	70.9316669776095
156000000	0.0558410637007852	70.7335318507149	0.995755187832839	-16.8314671616723	0.995755187832839	-16.8314671616723	0.0558410649741428	70.7336938989704
158000000	0.0565181114396615	70.5352798314948	0.995699682300349	-17.0458407595277	0.995699682300349	-17.0458407595277	0.0565181124685247	70.5354444374616
160000000	0.057194267394904	70.3367602212802	0.99564388245628	-17.2601921565778	0.99564388245628	-17.2601921565778	0.0571942681560632	70.3369274738096
162000000	0.0578695244856084	70.1379815861087	0.995587788528908	-17.4745213014089	0.995587788528908	-17.4745213014089	0.0578695249586793	70.1381515767718
164000000	0.0585438755745331	69.9389521922331	0.995531400844139	-17.6888281403354	0.995531400844139	-17.6888281403354	0.0585438757419743	69.9391250147147
166000000	0.0592173134749606	69.7396800171637	0.995474719820046	-17.9031126175747	0.995474719820046	-17.9031126175747	0.0592173133220649	69.7398557667219
168000000	0.059889830956896	69.5401727602615	0.995417745961814	-18.1173746754066	0.995417745961814	-18.1173746754066	0.0598898304717464	69.5403515332435
170000000	0.0605614207526338	69.3404378529244	0.995360479857072	-18.3316142543162	0.995360479857072	-18.3316142543162	0.0605614199260388	69.3406197463472
172000000	0.0612320755617699	69.1404824683895	0.995302922171591	-18.5458312931254	0.995302922171591	-18.5458312931254	0.0612320743871768	69.1406675795677
174000000	0.061901788055709	68.9403135311721	0.99524507364531	-18.7600257291119	0.99524507364531	-18.7600257291119	0.0619017865290959	68.9405019574
176000000	0.0625705508817069	68.7399377261657	0.99518693508867	-18.9741974981187	0.99518693508867	-18.9741974981187	0.0625705490014615	68.740129564441
178000000	0.0632383566664972	68.5393615074134	0.995128507379226	-19.1883465346556	0.995128507379226	-19.1883465346556	0.0632383544332835	68.539556854204
180000000	0.0639051980195467	68.3385911065682	0.995069791458531	-19.4024727719915	0.995069791458531	-19.4024727719915	0.0639051954361561	68.3387900576222
182000000	0.0645710675359673	68.1376325410616	0.995010788329242	-19.6165761422413	0.995010788329242	-19.6165761422413	0.0645710646071671	68.1378351912453
184000000	0.0652359577991209	67.9364916219817	0.994951499052461	-19.8306565764466	0.994951499052461	-19.8306565764466	0.0652359545314938	67.9366980651554
186000000	0.0658998613829556	67.7351739616792	0.994891924745273	-20.044714004651	0.994891924745273	-20.044714004651	0.0658998577847336	67.7353842905999
188000000	0.0665627708540866	67.5336849811051	0.994832066578468	-20.2587483559712	0.994832066578468	-20.2587483559712	0.0665627669349857	67.5338992873594
190000000	0.0672246787736622	67.3320299169026	0.994771925774435	-20.4727595586639	0.994771925774435	-20.4727595586639	0.0672246745447124	67.3322482908577
192000000	0.0678855776990241	67.1302138282391	0.994711503605209	-20.686747540189	0.994711503605209	-20.686747540189	0.0678855731724057	67.13043635902
194000000	0.0685454601851971	66.928241603408	0.994650801390666	-20.9007122272703	0.994650801390666	-20.9007122272703	0.0685454553740737	66.9284683788917
196000000	0.0692043187862174	66.7261179661957	0.994589820496842	-21.1146535459532	0.994589820496842	-21.1146535459532	0.0692043137045733	66.7263490730211
198000000	0.069862146056316	66.5238474820244	0.994528562334373	-21.328571421659	0.994528562334373	-21.328571421659	0.0698621407188	66.5240830056222
200000000	0.0705189345509823	66.3214345638781	0.994467028357045	-21.5424657792389	0.994467028357045	-21.5424657792389	0.0705189289727553	66.3216745885073
202000000	0.071174676827914	66.1188834780149	0.994405220060443	-21.7563365430243	0.994405220060443	-21.7563365430243	0.0711746710245001	66.1191280868135
204000000	0.0718293654478663	65.9161983494783	0.99434313898069	-21.9701836368762	0.99434313898069	-21.9701836368762	0.0718293594350182	65.9164476245245
206000000	0.0724829929754238	65.7133831674063	0.994280786693267	-22.1840069842326	0.994280786693267	-22.1840069842326	0.0724829867689842	65.7136371897857
208000000	0.0731355519796809	65.5104417901516	0.994218164811908	-22.3978065081551	0.994218164811908	-22.3978065081551	0.0731355455954621	65.5107006400311
210000000	0.0737870350348712	65.3073779502112	0.994155274987572	-22.6115821313731	0.994155274987572	-22.6115821313731	0.0737870284885362	65.3076417069184
212000000	0.0744374347209278	65.1041952589781	0.994092118907457	-22.8253337763276	0.994092118907457	-22.8253337763276	0.0744374280278822	65.1044640010881
214000000	0.0750867436239996	64.9008972113147	0.994028698294097	-23.0390613652137	0.994028698294097	-23.0390613652137	0.0750867367992937	64.9011710167337
216000000	0.0757349543369218	64.6974871899612	0.99396501490449	-23.2527648200214	0.99396501490449	-23.2527648200214	0.0757349473951574	64.6977661360163
218000000	0.0763820594596481	64.4939684697716	0.993901070529282	-23.4664440625766	0.993901070529282	-23.4664440625766	0.0763820524148967	64.4942526333019
220000000	0.0770280515996532	64.2903442217965	0.99383686699199	-23.6800990145796	0.99383686699199	-23.6800990145796	0.077028044465384	64.2906336792427
222000000	0.0776729233723068	64.0866175172112	0.99377240614827	-23.8937295976439	0.99377240614827	-23.8937295976439	0.0776729161613194	64.0869123447062
224000000	0.0783166674012251	63.8827913310887	0.993707689885212	-24.1073357333338	0.993707689885212	-24.1073357333338	0.0783166601255968	63.8830916045462
226000000	0.0789592763186047	63.6788685460357	0.993642720120672	-24.3209173432007	0.993642720120672	-24.3209173432007	0.0789592689896397	63.6791743412394
228000000	0.0796007427655401	63.4748519556847	0.993577498802634	-24.5344743488189	0.993577498802634	-24.5344743488189	0.0796007353937294	63.475163348372
230000000	0.0802410593923278	63.2707442680501	0.993512027908595	-24.7480066718208	0.993512027908595	-24.7480066718208	0.0802410519873203	63.2710613339973
232000000	0.080880218858764	63.0665481087578	0.993446309444977	-24.9615142339312	0.993446309444977	-24.9615142339312	0.0808802114293412	63.0668709238572
234000000	0.0815182138344296	62.8622660241431	0.99338034544656	-25.1749969570003	0.99338034544656	-25.1749969570003	0.0815182063884883	62.8625946644846
236000000	0.0821550369989764	62.6579004842343	0.993314137975934	-25.3884547630368	0.993314137975934	-25.3884547630368	0.0821550295435179	62.6582350261769
238000000	0.0827906810424019	62.4534538856119	0.993247689122975	-25.6018875742396	0.993247689122975	-25.6018875742396	0.0827906735835313	62.4537944058535
240000000	0.0834251386653279	62.2489285541564	0.993181001004329	-25.8152953130294	0.993181001004329	-25.8152953130294	0.083425131208254	62.2492751298029
242000000	0.0840584025792744	62.0443267476916	0.993114075762914	-26.0286779020789	0.993114075762914	-26.0286779020789	0.0840583951283209	62.0446794563163
244000000	0.0846904655069343	61.8396506585132	0.993046915567446	-26.2420352643424	0.993046915567446	-26.2420352643424	0.0846904580655509	61.8400095782204
246000000	0.0853213201824487	61.6349024158264	0.992979522611959	-26.4553673230857	0.992979522611959	-26.4553673230857	0.0853213127532338	61.6352676253012
248000000	0.0859509593516838	61.4300840880762	0.992911899115356	-26.6686740019138	0.992911899115356	-26.6686740019138	0.0859509519364055	61.4304556666386
250000000	0.0865793757725098	61.2251976851894	0.992844047320957	-26.881955224799	0.992844047320957	-26.881955224799	0.0865793683721322	61.2255757128408
252000000	0.0872065622150798	61.0202451607247	0.992775969496066	-27.0952109161081	0.992775969496066	-27.0952109161081	0.0872065548297974	61.0206297181899
254000000	0.0878325114621147	60.8152284139322	0.992707667931537	-27.3084410006286	0.992707667931537	-27.3084410006286	0.0878325040913857	60.8156195826992
256000000	0.0884572163091885	60.610149291734	0.992639144941364	-27.5216454035948	0.992639144941364	-27.5216454035948	0.0884572089517702	60.6105471540889
258000000	0.0890806695650164	60.4050095906183	0.992570402862258	-27.7348240507127	0.992570402862258	-27.7348240507127	0.0890806622190073	60.4054142296778
260000000	0.0897028640517451	60.1998110584613	0.99250144405326	-27.9479768681848	0.99250144405326	-27.9479768681848	0.089702856714627	60.2002225581994
262000000	0.090323792605251	59.9945553962699	0.992432270895326	-28.1611037827339	0.992432270895326	-28.1611037827339	0.0903237852739298	59.9949738415437
264000000	0.0909434480754313	59.7892442598546	0.992362885790946	-28.3742047216263	0.992362885790946	-28.3742047216263	0.0909434407462828	59.7896697364241
266000000	0.091561823326506	59.5838792614322	0.992293291163759	-28.587279612695	0.992293291163759	-28.587279612695	0.0915618159954234	59.5843118559802
268000000	0.0921789112373184	59.3784619711633	0.992223489458173	-28.8003283843613	0.992223489458173	-28.8003283843613	0.092178903899757	59.3789017713095
270000000	0.0927947047016402	59.172993918626	0.99215348313899	-29.0133509656566	0.99215348313899	-29.0133509656566	0.0927946973526629	59.1734410129383
272000000	0.0934091966284711	58.967476594227	0.99208327469104	-29.2263472862435	0.99208327469104	-29.2263472862435	0.0934091892627963	58.9679310722329
274000000	0.0940223799423509	58.7619114505549	0.992012866618815	-29.4393172764361	0.992012866618815	-29.4393172764361	0.0940223725543978	58.7623734027472
276000000	0.0946342475836639	58.5562999036771	0.99194226144611	-29.65226086722	0.99194226144611	-29.65226086722	0.0946342401675982	58.5567694215201
278000000	0.095244792508944	58.3506433343841	0.99187146171567	-29.8651779902716	0.99187146171567	-29.8651779902716	0.0952447850587227	58.3511205103143
280000000	0.0958540076911874	58.1449430893788	0.991800469988837	-30.0780685779767	0.991800469988837	-30.0780685779767	0.0958540002006025	58.1454280168068
282000000	0.0964618861201588	57.9392004824178	0.991729288845203	-30.2909325634493	0.991729288845203	-30.2909325634493	0.0964618785828797	57.9396932557269
284000000	0.0970684208026971	57.7334167954057	0.99165792088227	-30.5037698805493	0.99165792088227	-30.5037698805493	0.0970684132123108	57.7339175099494
286000000	0.0976736047630264	57.5275932794429	0.991586368715108	-30.7165804638992	0.991586368715108	-30.7165804638992	0.0976735971130759	57.5281020315395
288000000	0.0982774310430575	57.321731155829	0.991514634976016	-30.929364248902	0.991514634976016	-30.929364248902	0.0982774233270793	57.3222480427583
290000000	0.0988798927026932	57.1158316170264	0.991442722314201	-31.1421211717567	0.991442722314201	-31.1421211717567	0.0988798849142565	57.1163567370207
292000000	0.0994809828201316	56.9098958275807	0.991370633395434	-31.3548511694744	0.991370633395434	-31.3548511694744	0.0994809749528666	56.9104292798191
294000000	0.100080694492167	56.7039249250061	0.991298370901736	-31.5675541798943	0.991298370901736	-31.5675541798943	0.100080686539797	56.7044668096048
296000000	0.100679020834482	56.4979200206305	0.991225937531051	-31.7802301416977	0.991225937531051	-31.7802301416977	0.100679012790857	56.4984704386352
298000000	0.10127595498195	56.2918822004087	0.991153335996925	-31.9928789944237	0.991153335996925	-31.9928789944237	0.101275946841066	56.2924412537829
300000000	0.101871490088919	56.0858125256992	0.991080569028192	-32.2055006784825	0.991080569028192	-32.2055006784825	0.101871481844949	56.0863803173164
302000000	0.102465619329504	55.8797120340106	0.99100763936866	-32.4180951351696	0.99100763936866	-32.4180951351696	0.102465610976817	55.8802886676424
304000000	0.10305833589787	55.6735817397166	0.990934549776799	-32.630662306679	0.990934549776799	-32.630662306679	0.103058327431051	55.6741673200235
306000000	0.10364963300851	55.4674226347417	0.990861303025436	-32.8432021361163	0.990861303025436	-32.8432021361163	0.103649624422378	55.4680172672612
308000000	0.104239503896523	55.2612356892175	0.990787901901448	-33.055714567511	0.990787901901448	-33.055714567511	0.104239495186146	55.261839480355
310000000	0.104827941817882	55.0550218521145	0.990714349205458	-33.2681995458291	0.990714349205458	-33.2681995458291	0.104827932978589	55.0556349091323
312000000	0.105414940049705	54.8487820518457	0.99064064775154	-33.4806570169847	0.99064064775154	-33.4806570169847	0.105414931077098	54.8494044828534
314000000	0.106000491890508	54.6425171968485	0.990566800366917	-33.6930869278514	0.990566800366917	-33.6930869278514	0.10600048278047	54.6431491107927
316000000	0.106584590660468	54.4362281761399	0.990492809891671	-33.9054892262738	0.990492809891671	-33.9054892262738	0.10658458140917	54.436869682795
318000000	0.107167229701672	54.2299158598511	0.99041867917845	-34.117863861078	0.99041867917845	-34.117863861078	0.107167220305575	54.230567069811
320000000	0.107748402378359	54.0235810997419	0.990344411092173	-34.3302107820824	0.990344411092173	-34.3302107820824	0.107748392834217	54.02424212441
322000000	0.108328102077159	53.8172247296922	0.990270008509755	-34.5425299401074	0.990270008509755	-34.5425299401074	0.108328092382023	53.8178956812755
324000000	0.108906322207332	53.6108475661749	0.99019547431981	-34.7548212869859	0.99019547431981	-34.7548212869859	0.108906312358543	53.6115285576751
326000000	0.109483056200986	53.4044504087123	0.990120811422376	-34.9670847755722	0.990120811422376	-34.9670847755722	0.109483046196175	53.4051415539196
328000000	0.110058297513307	53.1980340403111	0.990046022728638	-35.1793203597519	0.990046022728638	-35.1793203597519	0.110058287350392	53.1987354537989
330000000	0.110632039622768	52.9915992278839	0.98997111116064	-35.3915279944503	0.98997111116064	-35.3915279944503	0.110632029299944	52.992311025002
332000000	0.11120427603134	52.7851467226519	0.989896079651022	-35.6037076356417	0.989896079651022	-35.6037076356417	0.111204265547076	52.7858690195234
334000000	0.111775000264694	52.5786772605354	0.98982093114274	-35.8158592403573	0.98982093114274	-35.8158592403573	0.111774989617721	52.5794101740517
336000000	0.112344205872401	52.3721915625253	0.989745668588797	-36.0279827666935	0.989745668588797	-36.0279827666935	0.112344195061703	52.3729352103427
338000000	0.112911886428114	52.1656903350457	0.989670294951977	-36.2400781738202	0.989670294951977	-36.2400781738202	0.112911875452918	52.1664448355841
340000000	0.113478035529759	51.9591742702978	0.989594813204574	-36.4521454219878	0.989594813204574	-36.4521454219878	0.113478024389523	51.9599397427381
342000000	0.11404264679971	51.7526440465978	0.989519226328134	-36.6641844725352	0.989519226328134	-36.6641844725352	0.11404263549411	51.7534206108801
344000000	0.114605713884958	51.5461003286945	0.98944353731319	-36.8761952878967	0.98944353731319	-36.8761952878967	0.114605702413876	51.5468881055192
346000000	0.115167230457277	51.3395437680826	0.989367749159	-37.0881778316089	0.989367749159	-37.0881778316089	0.115167218820787	51.3403428789097
348000000	0.115727190213384	51.1329750033019	0.989291864873293	-37.3001320683175	0.989291864873293	-37.3001320683175	0.115727178411739	51.1337855703514
350000000	0.116285586875089	50.9263946602252	0.989215887472013	-37.5120579637837	0.989215887472013	-37.5120579637837	0.116285574908705	50.9272168064804
352000000	0.116842414189444	50.7198033523384	0.989139819979063	-37.7239554848906	0.989139819979063	-37.7239554848906	0.116842402058884	50.7206372015459
354000000	0.11739766592888	50.5132016810095	0.989063665426055	-37.9358245996492	0.989063665426055	-37.9358245996492	0.117397653634844	50.5140473576842
