!Generated from: D:\Work\cadence_lib\blocks_symbols\fixture01_worst_case_intermed1.spd
! Port1::OUT
! Port2::OUT
!
!PowerSI Version: 16.0.0.02091.0   000
!Computer Host Name: DESKTOP-JQNU4CJ
!
!TouchstoneFormatFlag = 1
! GNDNET GND
! NETSLIST 
!ENCODED_BEGIN
!0889B71221DAF54192BECE6985861F1178E3CF1522971D6992DC39A223786694703D55A53EC5558E184E2ACE
!ENCODED_END
!
#	Hz	S	RI	R	50
100000000	-0.000522170275567931	-0.0092778216766508	0.980783199956169	-0.186966403031909	0.980783199956169	-0.186966403031909	-0.000521399882890772	-0.00927798199245931
102000000	-0.000583826829043355	-0.00946898491738001	0.980056529218556	-0.190642877626085	0.980056529218556	-0.190642877626085	-0.000583026264637599	-0.00946915423870284
104000000	-0.000647060170938078	-0.0096597297447307	0.979316201165429	-0.19431640417334	0.979316201165429	-0.19431640417334	-0.000646228911227486	-0.0096599085190978
106000000	-0.000711860942695946	-0.00985003976617301	0.978562223252949	-0.197986935260823	0.978562223252949	-0.197986935260823	-0.000710998469350386	-0.00985022842797108
108000000	-0.000778220055754423	-0.0100398989194646	0.977794603385945	-0.201654423269137	0.977794603385945	-0.201654423269137	-0.000777325855072308	-0.0100400978925552
110000000	-0.000846128659822334	-0.0102292914406882	0.977013349894892	-0.205318820397471	0.977013349894892	-0.205318820397471	-0.000845202222273201	-0.010229501140738
112000000	-0.000915578113494925	-0.0104182018367205	0.976218471515095	-0.208980078685447	0.976218471515095	-0.208980078685447	-0.000914618933392451	-0.0104184226732708
114000000	-0.000986559957154692	-0.0106066148615378	0.975409977367922	-0.212638150032214	0.975409977367922	-0.212638150032214	-0.000985567532436153	-0.0106068472398359
116000000	-0.00105906588807866	-0.0107945154958471	0.974587876943915	-0.216292986213191	0.974587876943915	-0.216292986213191	-0.00105803972017113	-0.0107947598184515
118000000	-0.00113308773765118	-0.0109818889295738	0.973752180087585	-0.219944538894812	0.973752180087585	-0.219944538894812	-0.00113202733140846	-0.0109821455977633
120000000	-0.00120861745057578	-0.0111687205468221	0.972902896983792	-0.223592759647582	0.972902896983792	-0.223592759647582	-0.00120752231426873	-0.0111689899618205
122000000	-0.0012856470659609	-0.0113549959129577	0.97204003814548	-0.227237599957685	0.97204003814548	-0.227237599957685	-0.0012845167113127	-0.0113552784769933
124000000	-0.00136416870016406	-0.0115407007635146	0.971163614402708	-0.230879011237369	0.971163614402708	-0.230879011237369	-0.00136300264241744	-0.0115409968807336
126000000	-0.00144417453126481	-0.0117258209946689	0.97027363689277	-0.234516944834284	0.97027363689277	-0.234516944834284	-0.0014429722892749	-0.0117261310719149
128000000	-0.00152565678505028	-0.0119103426550532	0.969370117051352	-0.23815135203992	0.969370117051352	-0.23815135203992	-0.00152441788139443	-0.0119106671025282
130000000	-0.00160860772239259	-0.0120942519387204	0.968453066604559	-0.241782184097288	0.968453066604559	-0.241782184097288	-0.00160733168349304	-0.01209459117054
132000000	-0.00169301962790491	-0.012277535179087	0.967522497561756	-0.245409392207931	0.967522497561756	-0.245409392207931	-0.00169170598415939	-0.0122778896137417
134000000	-0.00177888479977036	-0.0124601788437131	0.96657842220911	-0.249032927538374	0.96657842220911	-0.249032927538374	-0.0017775330856853	-0.0124605489044488
136000000	-0.00186619554063819	-0.012642169529799	0.965620853103751	-0.252652741226078	0.965620853103751	-0.252652741226078	-0.00186480529496478	-0.0126425556449221
138000000	-0.00195494414949506	-0.0128234939602859	0.964649803068499	-0.256268784384967	0.964649803068499	-0.256268784384967	-0.00195351491536328	-0.012823896563406
140000000	-0.00204512291442017	-0.0130041389804744	0.963665285187068	-0.259881008110581	0.963665285187068	-0.259881008110581	-0.00204365423946925	-0.0130045585106913
142000000	-0.00213672410614092	-0.0131840915550837	0.962667312799713	-0.263489363484898	0.962667312799713	-0.263489363484898	-0.00213521554264642	-0.0131845284571248
144000000	-0.00222973997231353	-0.0133633387656811	0.961655899499243	-0.267093801580869	0.961655899499243	-0.267093801580869	-0.00222819107730873	-0.0133637934899973
146000000	-0.00232416273245721	-0.0135418678084285	0.960631059127393	-0.270694273466691	0.960631059127393	-0.270694273466691	-0.00232257306784896	-0.0135423408112546
148000000	-0.00241998457347698	-0.0137196659920985	0.959592805771462	-0.274290730209849	0.959592805771462	-0.274290730209849	-0.00241835370615511	-0.013720157735482
150000000	-0.00251719764571556	-0.0138967207363184	0.958541153761236	-0.277883122880952	0.958541153761236	-0.277883122880952	-0.00251552514765573	-0.0138972316881208
152000000	-0.00261579405948076	-0.0140730195700034	0.95747611766613	-0.28147140255738	0.95747611766613	-0.28147140255738	-0.00261407950784094	-0.0140735502038811
154000000	-0.00271576588199758	-0.0142485501299608	0.956397712292542	-0.285055520326763	0.956397712292542	-0.285055520326763	-0.00271400885920851	-0.0142491009253262
156000000	-0.00281710513474228	-0.0144233001596292	0.95530595268137	-0.288635427290295	0.95530595268137	-0.288635427290295	-0.002815305228591	-0.014423871601596
158000000	-0.00291980379111514	-0.0145972575079384	0.95420085410571	-0.29221107456591	0.95420085410571	-0.29221107456591	-0.00291796059482342	-0.0145978500872544
160000000	-0.00302385377441789	-0.0147704101282729	0.953082432068675	-0.295782413291331	0.953082432068675	-0.295782413291331	-0.00302196688671434	-0.0147710243412429
162000000	-0.00312924695610088	-0.0149427460775223	0.951950702301358	-0.299349394626979	0.951950702301358	-0.299349394626979	-0.00312731598128826	-0.014943382425922
164000000	-0.00323597515425033	-0.0151142535152082	0.950805680760885	-0.302911969758782	0.950805680760885	-0.302911969758782	-0.00323399970226761	-0.0151149125061922
166000000	-0.00334403013229004	-0.0152849207026774	0.949647383628591	-0.306470089900867	0.949647383628591	-0.306470089900867	-0.00334200981877035	-0.0152856028486819
168000000	-0.0034534035978725	-0.015454736002354	0.948475827308268	-0.310023706298158	0.948475827308268	-0.310023706298158	-0.00345133804419673	-0.0154554418209956
170000000	-0.00356408720193788	-0.0156236878770419	0.9472910284245	-0.313572770228875	0.9472910284245	-0.313572770228875	-0.00356197603528438	-0.0156244178910149
172000000	-0.00367607253792261	-0.0157917648892737	0.94609300382107	-0.31711723300694	0.94609300382107	-0.31711723300694	-0.00367391539131365	-0.0157925196262458
174000000	-0.00378935114109926	-0.0159589557007022	0.944881770559428	-0.320657045984309	0.944881770559428	-0.320657045984309	-0.00378714765344461	-0.0159597356932092
176000000	-0.00390391448803362	-0.0161252490715291	0.943657345917232	-0.324192160553213	0.943657345917232	-0.324192160553213	-0.0039016643041713	-0.016126054856869
178000000	-0.00401975399614443	-0.0162906338599674	0.942419747386922	-0.32772252814833	0.942419747386922	-0.32772252814833	-0.004017456766879	-0.0162914659800966
180000000	-0.00413686102335479	-0.0164550990217383	0.941168992674364	-0.331248100248883	0.941168992674364	-0.331248100248883	-0.00413451640549386	-0.0164559580231681
182000000	-0.00425522686782352	-0.0166186336095984	0.939905099697525	-0.334768828380668	0.939905099697525	-0.334768828380668	-0.0042528345242125	-0.0166195200432925
184000000	-0.00437484276774851	-0.0167812267728936	0.938628086585196	-0.338284664118027	0.938628086585196	-0.338284664118027	-0.00437240236730308	-0.0167821411941679
186000000	-0.00449569990123208	-0.0169428677571445	0.937337971675759	-0.341795559085745	0.937337971675759	-0.341795559085745	-0.00449321111897037	-0.0169438107255684
188000000	-0.00461778938620245	-0.0171035459036545	0.936034773515975	-0.3453014649609	0.936034773515975	-0.3453014649609	-0.00461525190327551	-0.0171045179829542
190000000	-0.00474110228038462	-0.0172632506491456	0.934718510859827	-0.348802333474656	0.934718510859827	-0.348802333474656	-0.00473851578410619	-0.0172642524071098
192000000	-0.00486562958131442	-0.01742197152542	0.93338920266737	-0.352298116413997	0.93338920266737	-0.352298116413997	-0.00486299376519023	-0.0174230035338075
194000000	-0.00499136222639212	-0.0175796981590438	0.932046868103632	-0.355788765623424	0.932046868103632	-0.355788765623424	-0.00498867679014778	-0.0175807609934938
196000000	-0.00511829109297014	-0.0177364202710557	0.930691526537531	-0.359274233006586	0.930691526537531	-0.359274233006586	-0.00511555574257958	-0.0177375145109989
198000000	-0.00524640699847096	-0.0178921276766984	0.929323197540821	-0.362754470527886	0.929323197540821	-0.362754470527886	-0.00524362144618383	-0.0178932539052722
200000000	-0.00537570070053411	-0.0180468102851734	0.927941900887061	-0.366229430214029	0.927941900887061	-0.366229430214029	-0.00537286466490306	-0.0180479690891373
202000000	-0.00550616289718685	-0.0182004580994173	0.926547656550607	-0.36969906415554	0.926547656550607	-0.36969906415554	-0.00550327610309529	-0.0182016500690719
204000000	-0.00563778422703789	-0.0183530612158995	0.925140484705635	-0.373163324508232	0.925140484705635	-0.373163324508232	-0.00563484640572633	-0.0183542869450059
206000000	-0.0057705552694909	-0.0185046098244425	0.923720405725168	-0.376622163494651	0.923720405725168	-0.376622163494651	-0.00576756615858491	-0.0185058699101447
208000000	-0.0059044665449776	-0.0186550942080618	0.922287440180134	-0.380075533405474	0.922287440180134	-0.380075533405474	-0.00590142588851395	-0.01865638925081
210000000	-0.00603950851520694	-0.0188045047428255	0.92084160883845	-0.383523386600879	0.92084160883845	-0.383523386600879	-0.00603641606366153	-0.0188058353463017
212000000	-0.00617567158343075	-0.0189528318977361	0.919382932664097	-0.386965675511884	0.919382932664097	-0.386965675511884	-0.00617252709374528	-0.0189541986687807
214000000	-0.00631294609472372	-0.0191000662346291	0.917911432816247	-0.390402352641659	0.917911432816247	-0.390402352641659	-0.00630974933033297	-0.0191014697831683
216000000	-0.00645132233627741	-0.0192461984080909	0.916427130648374	-0.393833370566798	0.916427130648374	-0.393833370566798	-0.00644807306713687	-0.0192476393470665
218000000	-0.00659079053770731	-0.0193912191653957	0.914930047707406	-0.397258681938576	0.914930047707406	-0.397258681938576	-0.00658748854032013	-0.0193926981106959
220000000	-0.00673134087137179	-0.0195351193464598	0.913420205732867	-0.400678239484171	0.913420205732867	-0.400678239484171	-0.00672798592881627	-0.01953663691685
222000000	-0.0068729634527032	-0.0196778898838109	0.911897626656057	-0.404091996007879	0.911897626656057	-0.404091996007879	-0.00686955535466065	-0.0196794467008664
224000000	-0.00701564834055027	-0.019819521802577	0.910362332599228	-0.40749990439227	0.910362332599228	-0.40749990439227	-0.00701218688333192	-0.0198211184906161
226000000	-0.00715938553753124	-0.0199600062204891	0.908814345874779	-0.410901917599365	0.908814345874779	-0.410901917599365	-0.00715587052410613	-0.0199616434065067
228000000	-0.00730416499039781	-0.020099334347898	0.90725368898446	-0.414297988671757	0.90725368898446	-0.414297988671757	-0.00730059623041994	-0.0201010126615002
230000000	-0.00744997659040861	-0.0202374974878087	0.905680384618586	-0.417688070733736	0.905680384618586	-0.417688070733736	-0.00744635390024497	-0.0202392175611482
232000000	-0.00759681017371435	-0.0203744870359266	0.904094455655271	-0.421072116992371	0.904094455655271	-0.421072116992371	-0.00759313337647183	-0.0203762495036375
234000000	-0.00774465552175124	-0.0205102944807164	0.902495925159655	-0.424450080738595	0.902495925159655	-0.424450080738595	-0.00774092444730397	-0.0205120999798501
236000000	-0.00789350236164483	-0.0206449114034749	0.900884816383157	-0.427821915348261	0.900884816383157	-0.427821915348261	-0.00788971684666138	-0.0206467605734369
238000000	-0.00804334036662375	-0.0207783294784163	0.899261152762732	-0.431187574283183	0.899261152762732	-0.431187574283183	-0.00803950025459425	-0.0207802229609013
240000000	-0.0081941591564423	-0.0209105404727669	0.897624957920121	-0.434547011092159	0.897624957920121	-0.434547011092159	-0.00819026429770483	-0.0209124789116957
242000000	-0.00834594829781253	-0.0210415362468714	0.895976255661139	-0.437900179411984	0.895976255661139	-0.437900179411984	-0.00834199854958013	-0.0210435202883279
244000000	-0.00849869730484586	-0.0211713087543102	0.894315069974938	-0.44124703296844	0.894315069974938	-0.44124703296844	-0.00849469253123233	-0.0211733390464772
246000000	-0.00865239563950384	-0.0212998500420249	0.892641425033301	-0.444587525577274	0.892641425033301	-0.444587525577274	-0.00864833571155037	-0.0213019272351209
248000000	-0.00880703271205778	-0.0214271522504533	0.890955345189929	-0.44792161114517	0.890955345189929	-0.44792161114517	-0.00880291750775778	-0.0214292769966686
250000000	-0.00896259788155713	-0.021553207613672	0.889256854979745	-0.451249243670696	0.889256854979745	-0.451249243670696	-0.00895842728588203	-0.0215553805671056
252000000	-0.0091190804563078	-0.0216780084595481	0.887545979118188	-0.454570377245242	0.887545979118188	-0.454570377245242	-0.00911485436123173	-0.0216802302761432
254000000	-0.00927646969435768	-0.0218015472098958	0.88582274250053	-0.457884966053953	0.88582274250053	-0.457884966053953	-0.00927218799888208	-0.0218038185473759
256000000	-0.00943475480399285	-0.0219238163806424	0.884087170201183	-0.461192964376634	0.884087170201183	-0.461192964376634	-0.00943041741417001	-0.0219261378984472
258000000	-0.00959392494424022	-0.0220448085819972	0.882339287473024	-0.46449432658866	0.882339287473024	-0.46449432658866	-0.00958953177319754	-0.022047180941218
260000000	-0.0097539692253811	-0.0221645165186278	0.880579119746707	-0.467789007161865	0.880579119746707	-0.467789007161865	-0.00974952019334354	-0.0221669403819428
262000000	-0.00991487670947165	-0.0222829329898416	0.878806692630005	-0.471076960665422	0.878806692630005	-0.471076960665422	-0.00991037174378381	-0.0222854090214511
264000000	-0.0100766364108712	-0.0224000508897703	0.877022031907127	-0.474358141766714	0.877022031907127	-0.474358141766714	-0.0100720754460199	-0.0224025797553308
266000000	-0.010239237296781	-0.0225158632075593	0.875225163538059	-0.477632505232188	0.875225163538059	-0.477632505232188	-0.0102346202744162	-0.0225184455741177
268000000	-0.0104026682877892	-0.0226303630275602	0.873416113657896	-0.480900005928215	0.873416113657896	-0.480900005928215	-0.0103979951567445	-0.0226329995634889
270000000	-0.0105669182584244	-0.0227435435295265	0.871594908576188	-0.484160598821918	0.871594908576188	-0.484160598821918	-0.0105621889747373	-0.0227462349044563
272000000	-0.0107319760377168	-0.0228553979888129	0.869761574776277	-0.487414238982007	0.869761574776277	-0.487414238982007	-0.0107271905646481	-0.0228581448735664
274000000	-0.0108978304097683	-0.0229659197765733	0.867916138914649	-0.4906608815796	0.867916138914649	-0.4906608815796	-0.0108929887178207	-0.0229687228430981
276000000	-0.011064470114329	-0.0230751023599659	0.866058627820275	-0.493900481889034	0.866058627820275	-0.493900481889034	-0.0110595721812643	-0.0230779622812674
278000000	-0.0112318838473809	-0.023182939302355	0.864189068493963	-0.497132995288667	0.864189068493963	-0.497132995288667	-0.0112269296582389	-0.0231858567524284
280000000	-0.011400060261731	-0.0232894242635153	0.862307488107715	-0.500358377261668	0.862307488107715	-0.500358377261668	-0.0113950498088443	-0.0232923999172782
282000000	-0.0115689879676092	-0.0233945509998377	0.86041391400407	-0.50357658339681	0.86041391400407	-0.50357658339681	-0.0115639212506202	-0.0233975855330615
284000000	-0.0117386555332748	-0.0234983133645355	0.858508373695468	-0.506787569389244	0.858508373695468	-0.506787569389244	-0.0117335325591501	-0.0235014074537761
286000000	-0.0119090514856292	-0.0236007053078474	0.85659089486361	-0.509991291041261	0.85659089486361	-0.509991291041261	-0.0119038722686744	-0.0236038596303778
288000000	-0.0120801643108367	-0.0237017208772447	0.854661505358802	-0.513187704263061	0.854661505358802	-0.513187704263061	-0.0120749288727091	-0.0237049361109842
290000000	-0.0122519824549493	-0.023801354217635	0.852720233199326	-0.516376765073503	0.852720233199326	-0.516376765073503	-0.0122466908246714	-0.0238046310410805
292000000	-0.012424494324541	-0.0238995995715636	0.850767106570797	-0.519558429600851	0.850767106570797	-0.519558429600851	-0.0124191465385119	-0.0239029386637202
294000000	-0.0125976882873464	-0.0239964512794189	0.848802153825527	-0.522732654083509	0.848802153825527	-0.522732654083509	-0.0125922843893532	-0.0239998533197286
296000000	-0.0127715526729062	-0.0240919037796302	0.84682540348188	-0.525899394870752	0.84682540348188	-0.525899394870752	-0.0127660927141341	-0.024095369447902
298000000	-0.0129460757732189	-0.0241859516088671	0.844836884223642	-0.529058608423452	0.844836884223642	-0.529058608423452	-0.0129405598122607	-0.0241894815852069
300000000	-0.0131212458433975	-0.0242785894022372	0.842836624899387	-0.532210251314787	0.842836624899387	-0.532210251314787	-0.0131156739462628	-0.0242821843669765
302000000	-0.0132970511023334	-0.0243698118934795	0.840824654521835	-0.535354280230957	0.840824654521835	-0.535354280230957	-0.0132914233424553	-0.0243734725271043
304000000	-0.0134734797333643	-0.0244596139151566	0.838801002267212	-0.538490651971878	0.838801002267212	-0.538490651971878	-0.0134677961916073	-0.0244633408982359
306000000	-0.0136505198849482	-0.0245479903988447	0.836765697474634	-0.54161932345188	0.836765697474634	-0.54161932345188	-0.0136447806496142	-0.0245517844119591
308000000	-0.0138281596713426	-0.0246349363753194	0.834718769645455	-0.544740251700397	0.834718769645455	-0.544740251700397	-0.0138223648381766	-0.0246387980989897
310000000	-0.0140063871732896	-0.0247204469747398	0.832660248442641	-0.547853393862642	0.832660248442641	-0.547853393862642	-0.0140005368454832	-0.0247243770893553
312000000	-0.0141851904387037	-0.0248045174268286	0.830590163690135	-0.550958707200287	0.830590163690135	-0.550958707200287	-0.0141792847268998	-0.0248085166125738
314000000	-0.0143645574833673	-0.0248871430610489	0.828508545372224	-0.554056149092128	0.828508545372224	-0.554056149092128	-0.0143585965056623	-0.0248912119978326
316000000	-0.0145444762916281	-0.0249683193067781	0.826415423632908	-0.557145677034744	0.826415423632908	-0.557145677034744	-0.0145384601735743	-0.0249724586741605
318000000	-0.0147249348171029	-0.0250480416934762	0.824310828775262	-0.560227248643159	0.824310828775262	-0.560227248643159	-0.0147188636917098	-0.025052252170597
320000000	-0.0149059209833854	-0.0251263058508541	0.822194791260805	-0.563300821651481	0.822194791260805	-0.563300821651481	-0.0148997949911193	-0.0251305881163591
322000000	-0.0150874226847566	-0.0252031075090339	0.820067341708872	-0.566366353913554	0.820067341708872	-0.566366353913554	-0.0150812419735411	-0.025207462241003
324000000	-0.0152694277869022	-0.0252784424987068	0.817928510895975	-0.569423803403588	0.817928510895975	-0.569423803403588	-0.0152631925121163	-0.0252828703745809
326000000	-0.0154519241276307	-0.0253523067512873	0.815778329755174	-0.572473128216793	0.815778329755174	-0.572473128216793	-0.0154456344521069	-0.0253568084477964
328000000	-0.015634899517598	-0.0254246962990632	0.813616829375442	-0.575514286569998	0.813616829375442	-0.575514286569998	-0.0156285556116191	-0.0254292724921524
330000000	-0.0158183417410337	-0.0254956072753395	0.811444041001032	-0.578547236802277	0.811444041001032	-0.578547236802277	-0.0158119437823292	-0.0255002586400971
332000000	-0.0160022385564717	-0.0255650359145794	0.809259996030852	-0.581571937375555	0.809259996030852	-0.581571937375555	-0.0159957867302136	-0.0255697631251638
334000000	-0.0161865776974849	-0.025632978552541	0.807064726017816	-0.58458834687522	0.807064726017816	-0.58458834687522	-0.0161800721962813	-0.0256377822821078
336000000	-0.0163713468734204	-0.0256994316264079	0.804858262668226	-0.587596424010718	0.804858262668226	-0.587596424010718	-0.0163647878973108	-0.0257043125470363
