!Generated from: D:\Work\SiP Sigfox\Hardware\Work\designFlow_RFmodeling\V1I1\Design Files\Layout\tstFixture_S2-LP.spd
! Port1::TX
! Port2::TX
!
!PowerSI Version: 16.0.0.02091.0   000
!Computer Host Name: DESKTOP-JQNU4CJ
!
!TouchstoneFormatFlag = 1
! GNDNET GND
! NETSLIST 
!ENCODED_BEGIN
!0889B71221DAF54192BECE6985861F1178E3CF1522971D6992DC39A223786694703D55A53EC5558E184E2ACE
!ENCODED_END
!
#	MHz	S	MA	R	50
100	0.0133595756093158	81.4292602666678	0.996958367711824	-9.12228865407325	0.996958367711824	-9.12228865407325	0.013359618812258	81.4367949425585
110	0.0146066236513827	80.8071037272646	0.996718136947617	-10.0303103327473	0.996718136947617	-10.0303103327473	0.0146066868815262	80.815427760871
120	0.0158464305708386	80.1514302727956	0.996479548733735	-10.9381343955781	0.996479548733735	-10.9381343955781	0.0158465171996297	80.1605438253502
130	0.0170790076343142	79.4685376050898	0.996242237755141	-11.8457805572813	0.996242237755141	-11.8457805572813	0.0170791210660081	79.4784404605574
140	0.0183042943146078	78.7631812314827	0.996005910523937	-12.7532639422417	0.996005910523937	-12.7532639422417	0.0183044379730533	78.7738728407848
150	0.0195221789876009	78.0390370808279	0.995770330372038	-13.6605963559676	0.995770330372038	-13.6605963559676	0.0195223563048738	78.0505165910285
160	0.0207325130246526	77.2990002171107	0.995535305221872	-14.5677871554482	0.995535305221872	-14.5677871554482	0.0207327274309503	77.3112664926005
170	0.0219351203395234	76.5453864038464	0.995300678084563	-15.4748438433226	0.995300678084563	-15.4748438433226	0.0219353752539017	76.5584380411319
180	0.0231298039758097	75.7800729353817	0.995066319864721	-16.3817724811316	0.995066319864721	-16.3817724811316	0.0231301027975078	75.7939082721723
190	0.0243163508029645	75.0045997166492	0.994832123960764	-17.2885779855264	0.994832123960764	-17.2885779855264	0.0243166969031601	75.0192168379472
200	0.0254945349903947	74.220243353109	0.994598002200403	-18.1952643480388	0.994598002200403	-18.1952643480388	0.0254949317042887	74.2356400950892
210	0.0266641206707798	73.4280723899727	0.994363881746917	-19.1018348034429	0.994363881746917	-19.1018348034429	0.0266645712898739	73.4442463402246
220	0.0278248640442648	72.6289890926396	0.994129702706823	-20.008291962169	0.994129702706823	-20.008291962169	0.0278253718087816	72.645937588923
230	0.0289765150777972	71.8237614520552	0.993895416247055	-20.9146379167049	0.993895416247055	-20.9146379167049	0.0289770831691667	71.8414815792535
240	0.0301188189002248	71.0130479871748	0.993660983086991	-21.8208743284626	0.993660983086991	-21.8208743284626	0.0301194504335477	71.0315365719942
250	0.0312515169630731	70.197417171847	0.993426372271118	-22.7270024994692	0.993426372271118	-22.7270024994692	0.0312522149794992	70.2166707760357
260	0.0323743480162796	69.3773628051106	0.993191560155832	-23.6330234320424	0.993191560155832	-23.6330234320424	0.0323751154752089	69.3973777164106
270	0.0334870489336376	68.5533162862939	0.992956529562765	-24.5389378789382	0.992956529562765	-24.5389378789382	0.0334878887046673	68.5740885076344
280	0.034589355419308	67.7256565052588	0.992721269063636	-25.4447463855976	0.992721269063636	-25.4447463855976	0.0345902702738251	67.7471817418169
290	0.0356810026121858	66.8947178773217	0.992485772370715	-26.3504493262444	0.992485772370715	-26.3504493262444	0.0356819952144956	66.9169915212696
300	0.0367617256126282	66.0607969215162	0.992250037812685	-27.2560469345608	0.992250037812685	-27.2560469345608	0.0367627985104577	66.0838140336236
310	0.0378312599396171	65.2241576845941	0.99201406788063	-28.1615393302112	0.99201406788063	-28.1615393302112	0.0378324155538921	65.247912973687
320	0.0388893419339917	64.3850362445463	0.991777868831663	-29.0669265417051	0.991777868831663	-29.0669265417051	0.0388905825476267	64.4095240428656
330	0.0399357091143121	63.5436444727835	0.991541450340496	-29.9722085263516	0.991541450340496	-29.9722085263516	0.0399370368597853	63.5688587071707
340	0.0409701004943765	62.7001731954687	0.991304825190876	-30.8773851877051	0.991304825190876	-30.8773851877051	0.0409715173397983	62.7261073541463
350	0.0419922568686332	61.8547948652243	0.991068009000419	-31.7824563908949	0.991068009000419	-31.7824563908949	0.0419937646018713	61.8814419585097
360	0.0430019210690169	61.0076658304338	0.99083101997353	-32.6874219762685	0.99083101997353	-32.6874219762685	0.0430035212793749	61.0350183446391
370	0.043998838200148	60.1589282726908	0.990593878677833	-33.5922817714591	0.990593878677833	-33.5922817714591	0.0440005322568622	60.1869781151102
380	0.044982755853948	59.3087118684341	0.990356607840516	-34.4970356022683	0.990356607840516	-34.4970356022683	0.0449845448805851	59.3374503018526
390	0.0459534243078962	58.4571352208512	0.990119232161352	-35.4016833025119	0.990119232161352	-35.4016833025119	0.0459553091513433	58.4865527845447
400	0.0469105967108016	57.6043070992059	0.989881778139569	-36.3062247229483	0.989881778139569	-36.3062247229483	0.0469125779030445	57.6343935129809
410	0.0478540292570797	56.7503275164772	0.989644273912163	-37.2106597395807	0.989644273912163	-37.2106597395807	0.0478561069671984	56.7810715626243
420	0.0487834813535678	55.8952886707999	0.989406749101173	-38.1149882614484	0.989406749101173	-38.1149882614484	0.0487856553261805	55.9266780469729
430	0.0496987157824561	55.0392757717996	0.989169234667425	-39.0192102380901	0.989169234667425	-39.0192102380901	0.0497009852570781	55.071296905457
440	0.0505994988633628	54.1823677703172	0.988931762767802	-39.9233256670056	0.988931762767802	-39.9233256670056	0.0506018624660775	54.2150055804731
450	0.0514856006215327	53.3246380069484	0.988694366612124	-40.8273346013854	0.988694366612124	-40.8273346013854	0.0514880562154779	53.3578755928409
460	0.0523567949712562	52.466154793719	0.988457080313673	-41.7312371585969	0.988457080313673	-41.7312371585969	0.0523593394437155	52.4999730187147
470	0.0532128599288623	51.6069819411764	0.988219938723502	-42.6350335302252	0.988219938723502	-42.6350335302252	0.0532154888771561	51.64135886379
480	0.05405357788194	50.7471792438731	0.9879829772303	-43.5387239949257	0.9879829772303	-43.5387239949257	0.0540562851302771	50.7820893163989
490	0.0548787359643685	49.8868029354215	0.987746231489642	-44.4423089363188	0.987746231489642	-44.4423089363188	0.054881512783206	49.9222158378831
500	0.0556881266377755	49.0259061208648	0.987509737004284	-45.3457888700115	0.987509737004284	-45.3457888700115	0.0556909604052568	49.0617849996756
510	0.0564815486974113	48.1645391770794	0.987273528370227	-46.2491644877263	0.987273528370227	-46.2491644877263	0.0564844204290211	48.200837867727
520	0.0572588092277524	47.3027500261812	0.987037637698172	-47.1524367340643	0.987037637698172	-47.1524367340643	0.0572616885727094	47.3394084790721
530	0.058019727904503	46.4405837733879	0.986802090726882	-48.0556069441179	0.986802090726882	-48.0556069441179	0.0580225617106654	46.4775203080037
540	0.0587641477508666	45.5780788801659	0.986566895349073	-48.9586770546667	0.986566895349073	-48.9586770546667	0.0587668294773235	45.6151781219483
550	0.0594919632843464	44.7152411495644	0.986332000963465	-49.8616493426915	0.986332000963465	-49.8616493426915	0.0594942351206879	44.7523537469218
560	0.0602031161965154	43.8518688034893	0.986097185588229	-50.7645173090972	0.986097185588229	-50.7645173090972	0.0602042958909989	43.8890739200807
570	0.0608966908953825	42.9876790932596	0.985862895864401	-51.6672389987157	0.985862895864401	-51.6672389987157	0.0608968716908757	43.0261989675415
580	0.0615730013922778	42.1239223331862	0.985629560931916	-52.5699001558395	0.985629560931916	-52.5699001558395	0.0615728938304359	42.1625875650995
590	0.0622325511022091	41.2585739194555	0.985395044281355	-53.4724255448629	0.985395044281355	-53.4724255448629	0.0622294220051493	41.2982232592305
600	0.0628707984900527	40.3926171050049	0.985163379300155	-54.3746654373608	0.985163379300155	-54.3746654373608	0.0628680810991277	40.4374514981228
610	0.0634919509234986	39.5299856385002	0.984934744256144	-55.2769964277126	0.984934744256144	-55.2769964277126	0.0634929221553941	39.5753686079011
620	0.0640968970148944	38.6669489284047	0.984705296427096	-56.1792947139142	0.984705296427096	-56.1792947139142	0.0640991667050016	38.7114469729959
630	0.0646840878917627	37.8034004272209	0.984475945361098	-57.0814923750831	0.984475945361098	-57.0814923750831	0.0646866259273883	37.8471370418069
640	0.0652531821078341	36.9396028395116	0.984247052762045	-57.9835907605754	0.984247052762045	-57.9835907605754	0.0652554071338701	36.9826810925633
650	0.0658040648964299	36.0755067707425	0.984018644919953	-58.8855833079757	0.984018644919953	-58.8855833079757	0.0658053434723591	36.1182907998477
660	0.0663359835161653	35.2111044042038	0.983791401977388	-59.7874568539121	0.983791401977388	-59.7874568539121	0.0663369630901944	35.2543108211104
670	0.0668490951876251	34.3472626586086	0.983565391068954	-60.6892764692232	0.983565391068954	-60.6892764692232	0.066850326746957	34.3897679495504
680	0.0673438945576862	33.483663850959	0.983339911526296	-61.5910329847583	0.983339911526296	-61.5910329847583	0.0673445222602983	33.5247760628897
690	0.0678202586566519	32.6202037675093	0.983114978237922	-62.492721272532	0.983114978237922	-62.492721272532	0.067819423156906	32.6594497057555
700	0.0682783217544688	31.7569167645622	0.982890405601688	-63.3943525913539	0.982890405601688	-63.3943525913539	0.0682747519989025	31.7936004117334
710	0.0687186241314202	30.8937110232951	0.982665548549873	-64.2959418490954	0.982665548549873	-64.2959418490954	0.0687097853441936	30.9268669315395
720	0.0691424891805473	30.0298166719569	0.982438604122286	-65.1974831553934	0.982438604122286	-65.1974831553934	0.0691225071121533	30.05886674055
730	0.0695514528437245	29.1611940999441	0.982205474018521	-66.0987602380178	0.982205474018521	-66.0987602380178	0.0695073303442105	29.191584459159
740	0.0699329463677933	28.27970408219	0.98197250836616	-66.9988454190084	0.98197250836616	-66.9988454190084	0.0698650468122779	28.3400657122782
750	0.0702716383922827	27.4081883362129	0.981768543200684	-67.8987807007645	0.981768543200684	-67.8987807007645	0.0702309563780718	27.4974724818333
760	0.0705995799881793	26.550343596654	0.981566159060324	-68.7998120698911	0.981566159060324	-68.7998120698911	0.0705845069356299	26.6384372868917
770	0.0709157054809557	25.692115793783	0.98135725583403	-69.7009775724238	0.98135725583403	-69.7009775724238	0.0709116519252395	25.7744960230374
780	0.071214419198876	24.8323871960861	0.981146248736347	-70.6020324405855	0.981146248736347	-70.6020324405855	0.0712153012119613	24.9104081406571
790	0.0714939570608573	23.9718371134441	0.980935157195537	-71.5029701107221	0.980935157195537	-71.5029701107221	0.0714973525567225	24.0468679999147
800	0.0717537547552013	23.1109289193044	0.980724753137903	-72.4038069041165	0.980724753137903	-72.4038069041165	0.0717585801022612	23.18389865976
810	0.071993587621834	22.2499244673476	0.980515367808318	-73.3045562316908	0.980515367808318	-73.3045562316908	0.0719992999151899	22.3214436895532
820	0.0722133410037934	21.3889779417489	0.980307164927068	-74.2052276682627	0.980307164927068	-74.2052276682627	0.0722196416041194	21.4594560455369
830	0.0724129421945678	20.5281874047767	0.98010023683363	-75.1058282473562	0.98010023683363	-75.1058282473562	0.0724196535485449	20.5979062334476
840	0.0725923377612478	19.6676205048392	0.979894641954746	-76.0063634538015	0.979894641954746	-76.0063634538015	0.072599346814093	19.7367785477673
850	0.0727514852646729	18.8073276466025	0.979690420858549	-76.9068378320573	0.979690420858549	-76.9068378320573	0.0727587150579135	18.8760668843774
860	0.0728903500945578	17.9473490929163	0.979487603645423	-77.8072553494067	0.979487603645423	-77.8072553494067	0.0728977441747445	18.0157716882498
870	0.0730089043790235	17.0877190179116	0.979286213419531	-78.7076196170239	0.979286213419531	-78.7076196170239	0.073016417102146	17.1558979220971
880	0.0731071270223697	16.2284679383413	0.979086267619729	-79.6079340269969	0.979086267619729	-79.6079340269969	0.0731147159516418	16.2964538222706
890	0.0731850049337993	15.3696240698127	0.978887777551167	-80.5082018233741	0.978887777551167	-80.5082018233741	0.0731926220730722	15.4374505432296
900	0.0732425365304439	14.5112129352454	0.978690745235726	-81.4084260372915	0.978690745235726	-81.4084260372915	0.0732501136591366	14.5789040631614
910	0.073279738652109	13.6532498082735	0.978495156864585	-82.3086088377452	0.978495156864585	-82.3086088377452	0.0732871624098598	13.7208458781958
920	0.0732966332838279	12.795705992602	0.97830099978946	-83.2087488304915	0.97830099978946	-83.2087488304915	0.0733037646313609	12.8633571247385
930	0.0732930903383724	11.938522055447	0.978108431830971	-84.1088426294697	0.978108431830971	-84.1088426294697	0.0733001114295686	12.0065093029929
940	0.0732689602313095	11.0818912931115	0.977917618127037	-85.0089074239409	0.977917618127037	-85.0089074239409	0.0732763092074711	11.150084364309
950	0.0732244739066812	10.2259285723895	0.977728321416083	-85.9089528674132	0.977728321416083	-85.9089528674132	0.0732320851694638	10.2940577808388
960	0.0731597261030301	9.37056854895958	0.977540467049878	-86.8089745232022	0.977540467049878	-86.8089745232022	0.0731674104973701	9.43856485726446
970	0.0730747252693657	8.51578888716629	0.977354069082024	-87.7089718475367	0.977354069082024	-87.7089718475367	0.0730823320781462	8.58366399518259
980	0.0729694732967408	7.66157264784052	0.977169134614851	-88.6089443427346	0.977169134614851	-88.6089443427346	0.0729768759556685	7.72941692611638
990	0.0728438891329452	6.80792680278618	0.976985763994199	-89.5088905262528	0.976985763994199	-89.5088905262528	0.0728511652683987	6.87592320777864
1000	0.07269796093422	5.95501375265682	0.976804085198662	-90.4088217452986	0.976804085198662	-90.4088217452986	0.0727054125148343	6.02310967181988
1010	0.0725319014019941	5.10288958855435	0.976623946629338	-91.3087475031825	0.976623946629338	-91.3087475031825	0.0725395342681796	5.17087655166191
1020	0.0723457881617496	4.25150714898503	0.976445269463363	-92.2086658386658	0.976445269463363	-92.2086658386658	0.0723534828131435	4.3193021612125
1030	0.0721396460417726	3.40087401623311	0.976268062062105	-93.108577042726	0.976268062062105	-93.108577042726	0.0721473189090341	3.46845178478464
1040	0.071913521427313	2.55102022761531	0.976092328297054	-94.0084833331438	0.976092328297054	-94.0084833331438	0.07192111382813	2.6183645620521
1050	0.0716674787903495	1.70197695749004	0.975918058971829	-94.9083871721806	0.975918058971829	-94.9083871721806	0.071674934240942	1.76907614362955
1060	0.0714015912198329	0.853766439301561	0.97574523839996	-95.8082902955342	0.97574523839996	-95.8082902955342	0.0714088488008605	0.920633395740184
1070	0.071115908211222	0.00639971856593801	0.975573878466122	-96.7081932582724	0.975573878466122	-96.7081932582724	0.0711229653915396	0.0730984405716427
1080	0.0708104457990259	-0.840060171539616	0.97540403894887	-97.6081002988145	0.97540403894887	-97.6081002988145	0.070817442025215	-0.773525250289258
1090	0.0704853251331973	-1.68551314750334	0.975235675690735	-98.5080190811491	0.975235675690735	-98.5080190811491	0.0704923232337127	-1.61927373523735
1100	0.0701406929427734	-2.5299346324812	0.975068709129371	-99.4079513006467	0.975068709129371	-99.4079513006467	0.0701476352719089	-2.4640897101089
1110	0.0697766459658129	-3.37330486396608	0.974903116697032	-100.307897710698	0.974903116697032	-100.307897710698	0.0697834746815646	-3.30790621009221
1120	0.0693932772863062	-4.21558542780493	0.97473888639543	-101.20786026325	0.97473888639543	-101.20786026325	0.069399953250455	-4.1506736547732
1130	0.0689906888624426	-5.05672981684866	0.974576001611211	-102.107841347902	0.974576001611211	-102.107841347902	0.0689971832703236	-4.99234688604243
1140	0.0685689904334453	-5.89668767915385	0.974414441583196	-103.007843433456	0.974414441583196	-103.007843433456	0.0685752788088357	-5.83287971756302
1150	0.0681282981464019	-6.73540561754685	0.974254182679391	-103.907868976696	0.974254182679391	-103.907868976696	0.068134357257161	-6.67222350426625
1160	0.0676687338761688	-7.57282708724952	0.974095199032052	-104.807920404203	0.974095199032052	-104.807920404203	0.0676745400265784	-7.51032669017968
1170	0.0671904249230371	-8.40889204321861	0.973937462755534	-105.708000112599	0.973937462755534	-105.708000112599	0.0671959527737367	-8.34713452660275
1180	0.0666935038986532	-9.24353645630673	0.973780943906989	-106.608110474111	0.973780943906989	-106.608110474111	0.0666987253855562	-9.18258875134401
1190	0.0661781087455947	-10.0766916720879	0.97362561021328	-107.508253844236	0.97362561021328	-107.508253844236	0.0661829918213566	-10.0166271324717
1200	0.0656443829422576	-10.9082835134596	0.973471426469393	-108.408432568935	0.973471426469393	-108.408432568935	0.065648889867642	-10.8491827494955
1210	0.0650924761195992	-11.7382309432438	0.973318353357031	-109.308648983194	0.973318353357031	-109.308648983194	0.0650965609237832	-11.6801827613589
1220	0.0645225457678631	-12.5664440155955	0.973166345178933	-110.208905370855	0.973166345178933	-110.208905370855	0.0645261502689266	-12.5095461537484
1230	0.0639347619945852	-13.3928210755004	0.973015345793702	-111.109203779992	0.973015345793702	-111.109203779992	0.0639378095114443	-13.3371796494987
1240	0.0633293204179642	-14.2172478754948	0.972865283725588	-112.009545353553	0.972865283725588	-112.009545353553	0.0633317070374137	-14.1629721768697
1250	0.062706468784526	-15.0396162469407	0.972716082459985	-112.909928472221	0.972716082459985	-112.909928472221	0.0627080596126474	-14.9868018408533
1260	0.0620664967576027	-15.8599100544574	0.972567751110507	-113.810347499207	0.972567751110507	-113.810347499207	0.0620671589458298	-15.8086198232015
1270	0.06140950703003	-16.6782303416299	0.972420483819254	-114.710805323129	0.972420483819254	-114.710805323129	0.061409158346557	-16.6285659838641
1280	0.0607354053529885	-17.4943946396464	0.972274246301478	-115.61132333313	0.972274246301478	-115.61132333313	0.0607338568140576	-17.4465963741915
1290	0.0600444592925172	-18.3080070767364	0.972128642633668	-116.511908700972	0.972128642633668	-116.511908700972	0.0600412316237001	-18.2622959209645
1300	0.0593371724279067	-19.1188966904239	0.971983355507508	-117.412551342579	0.971983355507508	-117.412551342579	0.0593314853870272	-19.0752550144358
1310	0.0586140654367938	-19.9271477137462	0.971838143181008	-118.313231343175	0.971838143181008	-118.313231343175	0.0586048714168628	-19.8849560103347
1320	0.0578754835336764	-20.7332817384459	0.971693032374279	-119.21390651649	0.971693032374279	-119.21390651649	0.0578620788588333	-20.6906262487833
1330	0.0571207429942029	-21.5380606853022	0.971549154687062	-120.114538051117	0.971549154687062	-120.114538051117	0.0571047815109251	-21.4921170570217
1340	0.0563483505831192	-22.3405266020268	0.971407991629991	-121.015204696153	0.971407991629991	-121.015204696153	0.0563338453571531	-22.2913089849317
1350	0.0555589898632616	-23.1384450889661	0.971268459965015	-121.916019629405	0.971268459965015	-121.916019629405	0.055547502634342	-23.0892047526197
1360	0.0547545138614232	-23.9313617481353	0.971128835672368	-122.816962694201	0.971128835672368	-122.816962694201	0.0547447765919764	-23.8843577201982
1370	0.0539359621338495	-24.7198347032546	0.9709886702585	-123.717966600659	0.9709886702585	-123.717966600659	0.0539263844637024	-24.6754074241114
1380	0.0531037453373191	-25.5047289791989	0.970848473847417	-124.61897441501	0.970848473847417	-124.61897441501	0.0530936347951685	-25.462034626963
1390	0.0522571991436286	-26.2868895116274	0.970709530933822	-125.519987395632	0.970709530933822	-125.519987395632	0.0522472352506494	-26.24526052528
1400	0.0513952221744725	-27.0654865888544	0.97057216485874	-126.421088795022	0.97057216485874	-126.421088795022	0.0513862015682053	-27.0257212343486
1410	0.0505182362953948	-27.8389279988207	0.970435236553193	-127.322313018546	0.970435236553193	-127.322313018546	0.0505098534032999	-27.8021732280674
